(0.000000) can0 100#240C35034F550100
(0.000000) can0 101#A406710632000000
(0.000000) can0 180#FC0DBA02BE440000
(0.000000) can0 181#C80F640F46000000
(0.050000) can0 100#190C5C034D550100
(0.050000) can0 101#B906860633000000
(0.050000) can0 180#FC0DDB02BE440000
(0.050000) can0 181#C80F640F46000000
(0.100000) can0 100#4E0C4C034E550100
(0.100000) can0 101#CE069A0633000000
(0.100000) can0 180#FC0DCE02BE440000
(0.100000) can0 181#C80F640F46000000
(0.150000) can0 100#280C5C034E550100
(0.150000) can0 101#E406AF0634000000
(0.150000) can0 180#FC0DDB02BE440000
(0.150000) can0 181#C80F640F46000000
(0.200000) can0 100#360C66034D550100
(0.200000) can0 101#F806C30634000000
(0.200000) can0 180#FC0DE302BE440000
(0.200000) can0 181#C80F640F46000000
(0.250000) can0 100#620C71034D550100
(0.250000) can0 101#0D07D70635000000
(0.250000) can0 180#FC0DED02BE440000
(0.250000) can0 181#C80F640F46000000
(0.300000) can0 100#7F0C72034C550100
(0.300000) can0 101#2207EB0636000000
(0.300000) can0 180#FC0DEE02BE440000
(0.300000) can0 181#C80F640F46000000
(0.350000) can0 100#860C8A0350550100
(0.350000) can0 101#3607FE0636000000
(0.350000) can0 180#FC0D0203BE440000
(0.350000) can0 181#C80F640F46000000
(0.400000) can0 100#A20C930350550100
(0.400000) can0 101#4A07120737000000
(0.400000) can0 180#FC0D0A03BE440000
(0.400000) can0 181#C80F640F46000000
(0.450000) can0 100#7B0CB1034D550100
(0.450000) can0 101#5D07240737000000
(0.450000) can0 180#FB0D2303BE440000
(0.450000) can0 181#C80F640F46000000
(0.500000) can0 100#B20CB6034E560100
(0.500000) can0 101#7007370738000000
(0.500000) can0 180#FB0D2703BE440000
(0.500000) can0 181#C80F640F46000000
(0.550000) can0 100#C80CB1034E560100
(0.550000) can0 101#8207480739000000
(0.550000) can0 180#FB0D2303BE440000
(0.550000) can0 181#C80F640F46000000
(0.600000) can0 100#CB0CC3034C560100
(0.600000) can0 101#94075A0739000000
(0.600000) can0 180#FB0D3303BE440000
(0.600000) can0 181#C80F640F46000000
(0.650000) can0 100#C70CCF0350560100
(0.650000) can0 101#A5076A073A000000
(0.650000) can0 180#FB0D3D03BE440000
(0.650000) can0 181#C80F640F46000000
(0.700000) can0 100#BC0CC70350560100
(0.700000) can0 101#B6077B073A000000
(0.700000) can0 180#FB0D3603BE440000
(0.700000) can0 181#C80F640F46000000
(0.750000) can0 100#C70CC7034F560100
(0.750000) can0 101#C6078A073B000000
(0.750000) can0 180#FB0D3603BE440000
(0.750000) can0 181#C80F640F46000000
(0.800000) can0 100#E90CD9034F560100
(0.800000) can0 101#D50799073B000000
(0.800000) can0 180#FB0D4503BE440000
(0.800000) can0 181#C80F640F46000000
(0.850000) can0 100#D90CDC034C560100
(0.850000) can0 101#E307A7073B000000
(0.850000) can0 180#FB0D4803BD440000
(0.850000) can0 181#C70F630F46000000
(0.900000) can0 100#FC0CF10350560100
(0.900000) can0 101#F107B4073C000000
(0.900000) can0 180#FB0D5A03BD440000
(0.900000) can0 181#C70F630F46000000
(0.950000) can0 100#090DE5034F560100
(0.950000) can0 101#FE07C0073C000000
(0.950000) can0 180#FB0D5003BD440000
(0.950000) can0 181#C70F630F46000000
(1.000000) can0 100#200DFE034E560100
(1.000000) can0 101#0A08CC073D000000
(1.000000) can0 180#FB0D6503BD440000
(1.000000) can0 181#C70F630F46000000
(1.050000) can0 100#150D0C044D560100
(1.050000) can0 101#1508D7073D000000
(1.050000) can0 180#FB0D7003BD440000
(1.050000) can0 181#C70F630F46000000
(1.100000) can0 100#000DF00350560100
(1.100000) can0 101#1F08E0073D000000
(1.100000) can0 180#FB0D5903BD440000
(1.100000) can0 181#C70F630F46000000
(1.150000) can0 100#090DFC034C560100
(1.150000) can0 101#2808E9073D000000
(1.150000) can0 180#FB0D6303BD440000
(1.150000) can0 181#C70F630F46000000
(1.200000) can0 100#320D04044E560100
(1.200000) can0 101#3008F1073E000000
(1.200000) can0 180#FB0D6A03BD440000
(1.200000) can0 181#C70F630F46000000
(1.250000) can0 100#1A0D20044F560100
(1.250000) can0 101#3708F8073E000000
(1.250000) can0 180#FA0D8103BD440000
(1.250000) can0 181#C70F630F46000000
(1.300000) can0 100#160D08044F560100
(1.300000) can0 101#3E08FE073E000000
(1.300000) can0 180#FA0D6D03BD440000
(1.300000) can0 181#C70F630F46000000
(1.350000) can0 100#1A0D18044D560100
(1.350000) can0 101#430803083E000000
(1.350000) can0 180#FA0D7B03BD440000
(1.350000) can0 181#C70F630F46000000
(1.400000) can0 100#240D0C044C560100
(1.400000) can0 101#470807083E000000
(1.400000) can0 180#FA0D7003BD440000
(1.400000) can0 181#C70F630F46000000
(1.450000) can0 100#2D0D080451570100
(1.450000) can0 101#4A080A083E000000
(1.450000) can0 180#FA0D6D03BD440000
(1.450000) can0 181#C70F630F46000000
(1.500000) can0 100#160D1F044E570100
(1.500000) can0 101#4C080C083E000000
(1.500000) can0 180#FA0D8003BD440000
(1.500000) can0 181#C70F630F46000000
(1.550000) can0 100#2A0D080450570100
(1.550000) can0 101#4D080D083E000000
(1.550000) can0 180#FA0D6E03BD440000
(1.550000) can0 181#C70F630F46000000
(1.600000) can0 100#4C0D1B044D570100
(1.600000) can0 101#4D080D083E000000
(1.600000) can0 180#FA0D7D03BD440000
(1.600000) can0 181#C70F630F46000000
(1.650000) can0 100#430D06044E570100
(1.650000) can0 101#4C080C083E000000
(1.650000) can0 180#FA0D6B03BD440000
(1.650000) can0 181#C70F630F46000000
(1.700000) can0 100#370D1A0450570100
(1.700000) can0 101#49080A083E000000
(1.700000) can0 180#FA0D7C03BD440000
(1.700000) can0 181#C70F630F46000000
(1.750000) can0 100#330D070450570100
(1.750000) can0 101#460807083E000000
(1.750000) can0 180#FA0D6C03BD440000
(1.750000) can0 181#C70F630F46000000
(1.800000) can0 100#250D27044E570100
(1.800000) can0 101#420802083E000000
(1.800000) can0 180#FA0D8703BD440000
(1.800000) can0 181#C70F630F46000000
(1.850000) can0 100#160D120451570100
(1.850000) can0 101#3D08FD073E000000
(1.850000) can0 180#FA0D7603BD440000
(1.850000) can0 181#C70F630F46000000
(1.900000) can0 100#380D1E0451570100
(1.900000) can0 101#3608F7073E000000
(1.900000) can0 180#FA0D8003BD440000
(1.900000) can0 181#C70F630F46000000
(1.950000) can0 100#230D0F0451570100
(1.950000) can0 101#2F08F0073E000000
(1.950000) can0 180#FA0D7403BD440000
(1.950000) can0 181#C70F630F46000000
(2.000000) can0 100#250D09044E570100
(2.000000) can0 101#2608E8073D000000
(2.000000) can0 180#FA0D6E03BD440000
(2.000000) can0 181#C70F630F46000000
(2.050000) can0 100#110DEE0351570100
(2.050000) can0 101#1D08DF073D000000
(2.050000) can0 180#FA0D5703BD440000
(2.050000) can0 181#C70F630F46000000
(2.100000) can0 100#EC0C0E044E570100
(2.100000) can0 101#1308D5073D000000
(2.100000) can0 180#F90D7303BD440000
(2.100000) can0 181#C70F630F46000000
(2.150000) can0 100#160DF00352570100
(2.150000) can0 101#0808CA073C000000
(2.150000) can0 180#F90D5903BD440000
(2.150000) can0 181#C70F630F46000000
(2.200000) can0 100#110D040452570100
(2.200000) can0 101#FC07BE073C000000
(2.200000) can0 180#F90D6A03BD440000
(2.200000) can0 181#C70F630F46000000
(2.250000) can0 100#F10CDA034F570100
(2.250000) can0 101#EF07B2073C000000
(2.250000) can0 180#F90D4603BD440000
(2.250000) can0 181#C70F630F46000000
(2.300000) can0 100#F90CD60350570100
(2.300000) can0 101#E107A4073B000000
(2.300000) can0 180#F90D4203BD440000
(2.300000) can0 181#C70F630F46000000
(2.350000) can0 100#E20CD4034E580100
(2.350000) can0 101#D20796073B000000
(2.350000) can0 180#F90D4103BD440000
(2.350000) can0 181#C70F630F46000000
(2.400000) can0 100#D10CCA0350580100
(2.400000) can0 101#C30787073A000000
(2.400000) can0 180#F90D3903BD440000
(2.400000) can0 181#C70F630F46000000
(2.450000) can0 100#D90CC20351580100
(2.450000) can0 101#B30778073A000000
(2.450000) can0 180#F90D3203BD440000
(2.450000) can0 181#C70F630F46000000
(2.500000) can0 100#DE0CCC0350580100
(2.500000) can0 101#A207680739000000
(2.500000) can0 180#F90D3A03BC440000
(2.500000) can0 181#C60F630F46000000
(2.550000) can0 100#B60CAE0352580100
(2.550000) can0 101#9107570739000000
(2.550000) can0 180#F90D2103BC440000
(2.550000) can0 181#C60F620F46000000
(2.600000) can0 100#A00CB80352580100
(2.600000) can0 101#7F07460738000000
(2.600000) can0 180#F90D2903BC440000
(2.600000) can0 181#C60F620F46000000
(2.650000) can0 100#8D0C9A0350580100
(2.650000) can0 101#6D07340738000000
(2.650000) can0 180#F90D1003BC440000
(2.650000) can0 181#C60F620F46000000
(2.700000) can0 100#810CB2034F580100
(2.700000) can0 101#5A07210737000000
(2.700000) can0 180#F90D2403BC440000
(2.700000) can0 181#C60F620F46000000
(2.750000) can0 100#6B0C8E0350580100
(2.750000) can0 101#46070E0737000000
(2.750000) can0 180#F90D0503BC440000
(2.750000) can0 181#C60F620F46000000
(2.800000) can0 100#660C80034E580100
(2.800000) can0 101#3207FB0636000000
(2.800000) can0 180#F90DF902BC440000
(2.800000) can0 181#C60F620F46000000
(2.850000) can0 100#6F0C83034F580100
(2.850000) can0 101#1E07E80636000000
(2.850000) can0 180#F90DFC02BC440000
(2.850000) can0 181#C60F620F46000000
(2.900000) can0 100#700C6E0353580100
(2.900000) can0 101#0A07D40635000000
(2.900000) can0 180#F90DEA02BC440000
(2.900000) can0 181#C60F620F46000000
(2.950000) can0 100#4C0C6D0351580100
(2.950000) can0 101#F506C00634000000
(2.950000) can0 180#F80DE902BC440000
(2.950000) can0 181#C60F620F46000000
(3.000000) can0 100#500C6D034E580100
(3.000000) can0 101#E006AB0634000000
(3.000000) can0 180#F80DE902BC440000
(3.000000) can0 181#C60F620F46000000
(3.050000) can0 100#1D0C570351580100
(3.050000) can0 101#CB06970633000000
(3.050000) can0 180#F80DD702BC440000
(3.050000) can0 181#C60F620F46000000
(3.100000) can0 100#3D0C470352580100
(3.100000) can0 101#B606820633000000
(3.100000) can0 180#F80DC902BC440000
(3.100000) can0 181#C60F620F46000000
(3.150000) can0 100#160C430352580100
(3.150000) can0 101#A0066E0632000000
(3.150000) can0 180#F80DC602BC440000
(3.150000) can0 181#C60F620F46000000
(3.200000) can0 100#FC0B4D0351580100
(3.200000) can0 101#8B06590631000000
(3.200000) can0 180#F80DCE02BC440000
(3.200000) can0 181#C60F620F46000000
(3.250000) can0 100#130C330353580100
(3.250000) can0 101#7606440631000000
(3.250000) can0 180#F80DB802BC440000
(3.250000) can0 181#C60F620F46000000
(3.300000) can0 100#0E0C34034F580100
(3.300000) can0 101#6106300630000000
(3.300000) can0 180#F80DB902BC440000
(3.300000) can0 181#C60F620F46000000
(3.350000) can0 100#FC0B2A0353580100
(3.350000) can0 101#4C061C062F000000
(3.350000) can0 180#F80DB102BC440000
(3.350000) can0 181#C60F620F46000000
(3.400000) can0 100#D40B070351580100
(3.400000) can0 101#370608062F000000
(3.400000) can0 180#F80D9302BC440000
(3.400000) can0 181#C60F620F46000000
(3.450000) can0 100#AE0B03034F590100
(3.450000) can0 101#2306F4052E000000
(3.450000) can0 180#F80D9002BC440000
(3.450000) can0 181#C60F620F46000000
(3.500000) can0 100#AD0B0A0351590100
(3.500000) can0 101#0F06E0052E000000
(3.500000) can0 180#F80D9502BC440000
(3.500000) can0 181#C60F620F46000000
(3.550000) can0 100#AA0B07034F590100
(3.550000) can0 101#FB05CD052D000000
(3.550000) can0 180#F80D9302BC440000
(3.550000) can0 181#C60F620F46000000
(3.600000) can0 100#A50BF40253590100
(3.600000) can0 101#E805BB052C000000
(3.600000) can0 180#F80D8202BC440000
(3.600000) can0 181#C60F620F46000000
(3.650000) can0 100#890BF50251590100
(3.650000) can0 101#D505A8052C000000
(3.650000) can0 180#F80D8302BC440000
(3.650000) can0 181#C60F620F46000000
(3.700000) can0 100#8C0BE30253590100
(3.700000) can0 101#C30597052B000000
(3.700000) can0 180#F80D7402BC440000
(3.700000) can0 181#C60F620F46000000
(3.750000) can0 100#830BD00250590100
(3.750000) can0 101#B10585052B000000
(3.750000) can0 180#F80D6402BC440000
(3.750000) can0 181#C60F620F46000000
(3.800000) can0 100#5F0BDA0253590100
(3.800000) can0 101#A00575052A000000
(3.800000) can0 180#F70D6C02BC440000
(3.800000) can0 181#C60F620F46000000
(3.850000) can0 100#560BC30250590100
(3.850000) can0 101#8F0565052A000000
(3.850000) can0 180#F70D5902BC440000
(3.850000) can0 181#C60F620F46000000
(3.900000) can0 100#4E0BA8024F590100
(3.900000) can0 101#8005550529000000
(3.900000) can0 180#F70D4202BC440000
(3.900000) can0 181#C60F620F46000000
(3.950000) can0 100#450BB40251590100
(3.950000) can0 101#7105470529000000
(3.950000) can0 180#F70D4C02BC440000
(3.950000) can0 181#C60F620F46000000
(4.000000) can0 100#470BAC0251590100
(4.000000) can0 101#6205390529000000
(4.000000) can0 180#F70D4602BC440000
(4.000000) can0 181#C60F620F46000000
(4.050000) can0 100#5D0B970250590100
(4.050000) can0 101#55052C0528000000
(4.050000) can0 180#F70D3302BC440000
(4.050000) can0 181#C60F620F46000000
(4.100000) can0 100#2B0B980251590100
(4.100000) can0 101#4805200528000000
(4.100000) can0 180#F70D3402BC440000
(4.100000) can0 181#C60F620F46000000
(4.150000) can0 100#270B8F0250590100
(4.150000) can0 101#3C05140527000000
(4.150000) can0 180#F70D2D02BC440000
(4.150000) can0 181#C60F620F46000000
(4.200000) can0 100#120B8F024F590100
(4.200000) can0 101#32050A0527000000
(4.200000) can0 180#F70D2D02BB440000
(4.200000) can0 181#C50F610F46000000
(4.250000) can0 100#430B7B0253590100
(4.250000) can0 101#2805000527000000
(4.250000) can0 180#F70D1C02BB440000
(4.250000) can0 181#C50F610F46000000
(4.300000) can0 100#110B990250590100
(4.300000) can0 101#1F05F70427000000
(4.300000) can0 180#F70D3502BB440000
(4.300000) can0 181#C50F610F46000000
(4.350000) can0 100#310B7E0253590100
(4.350000) can0 101#1705F00426000000
(4.350000) can0 180#F70D1F02BB440000
(4.350000) can0 181#C50F610F46000000
(4.400000) can0 100#2A0B880251590100
(4.400000) can0 101#1005E90426000000
(4.400000) can0 180#F70D2702BB440000
(4.400000) can0 181#C50F610F46000000
(4.450000) can0 100#2F0B830254590100
(4.450000) can0 101#0A05E30426000000
(4.450000) can0 180#F70D2302BB440000
(4.450000) can0 181#C50F610F46000000
(4.500000) can0 100#220B730251590100
(4.500000) can0 101#0505DE0426000000
(4.500000) can0 180#F70D1502BB440000
(4.500000) can0 181#C50F610F46000000
(4.550000) can0 100#260B6A0254590100
(4.550000) can0 101#0105DA0426000000
(4.550000) can0 180#F70D0D02BB440000
(4.550000) can0 181#C50F610F46000000
(4.600000) can0 100#F30A790253590100
(4.600000) can0 101#FE04D70426000000
(4.600000) can0 180#F60D1A02BB440000
(4.600000) can0 181#C50F610F46000000
(4.650000) can0 100#0F0B7F0253590100
(4.650000) can0 101#FC04D60426000000
(4.650000) can0 180#F60D1F02BB440000
(4.650000) can0 181#C50F610F46000000
(4.700000) can0 100#110B6D0252590100
(4.700000) can0 101#FB04D50426000000
(4.700000) can0 180#F60D0F02BB440000
(4.700000) can0 181#C50F610F46000000
(4.750000) can0 100#210B8402545A0100
(4.750000) can0 101#FB04D50426000000
(4.750000) can0 180#F60D2302BB440000
(4.750000) can0 181#C50F610F46000000
(4.800000) can0 100#050B6E02555A0100
(4.800000) can0 101#FD04D60426000000
(4.800000) can0 180#F60D1102BB440000
(4.800000) can0 181#C50F610F46000000
(4.850000) can0 100#1B0B7D02535A0100
(4.850000) can0 101#FF04D90426000000
(4.850000) can0 180#F60D1E02BB440000
(4.850000) can0 181#C50F610F46000000
(4.900000) can0 100#1C0B7C02525A0100
(4.900000) can0 101#0205DC0426000000
(4.900000) can0 180#F60D1C02BB440000
(4.900000) can0 181#C50F610F46000000
(4.950000) can0 100#F30A6B02505A0100
(4.950000) can0 101#0705E00426000000
(4.950000) can0 180#F60D0E02BB440000
(4.950000) can0 181#C50F610F46000000
(5.000000) can0 100#2C0B8002515A0100
(5.000000) can0 101#0C05E60426000000
(5.000000) can0 180#F60D2002BB440000
(5.000000) can0 181#C50F610F46000000
(5.050000) can0 100#1D0B7402545A0100
(5.050000) can0 101#1305EC0426000000
(5.050000) can0 180#F60D1602BB440000
(5.050000) can0 181#C50F610F46000000
(5.100000) can0 100#110B9602515A0100
(5.100000) can0 101#1B05F30426000000
(5.100000) can0 180#F60D3202BB440000
(5.100000) can0 181#C50F610F46000000
(5.150000) can0 100#380B9A02545A0100
(5.150000) can0 101#2305FC0427000000
(5.150000) can0 180#F60D3602BB440000
(5.150000) can0 181#C50F610F46000000
(5.200000) can0 100#1A0B7F02515A0100
(5.200000) can0 101#2D05050527000000
(5.200000) can0 180#F60D1F02BB440000
(5.200000) can0 181#C50F610F46000000
(5.250000) can0 100#460B9002525A0100
(5.250000) can0 101#37050F0527000000
(5.250000) can0 180#F60D2D02BB440000
(5.250000) can0 181#C50F610F46000000
(5.300000) can0 100#220BAA02515A0100
(5.300000) can0 101#42051A0528000000
(5.300000) can0 180#F60D4402BB440000
(5.300000) can0 181#C50F610F46000000
(5.350000) can0 100#5B0BAC02515A0100
(5.350000) can0 101#4F05260528000000
(5.350000) can0 180#F60D4502BB440000
(5.350000) can0 181#C50F610F46000000
(5.400000) can0 100#2A0BAF02535A0100
(5.400000) can0 101#5C05320528000000
(5.400000) can0 180#F60D4802BB440000
(5.400000) can0 181#C50F610F46000000
(5.450000) can0 100#6A0BB902515A0100
(5.450000) can0 101#6905400529000000
(5.450000) can0 180#F50D5002BB440000
(5.450000) can0 181#C50F610F46000000
(5.500000) can0 100#6C0BAB02515A0100
(5.500000) can0 101#78054E0529000000
(5.500000) can0 180#F50D4402BB440000
(5.500000) can0 181#C50F610F46000000
(5.550000) can0 100#4C0BCA02515A0100
(5.550000) can0 101#88055D052A000000
(5.550000) can0 180#F50D5F02BB440000
(5.550000) can0 181#C50F610F46000000
(5.600000) can0 100#5D0BD002535A0100
(5.600000) can0 101#98056D052A000000
(5.600000) can0 180#F50D6402BB440000
(5.600000) can0 181#C50F610F46000000
(5.650000) can0 100#6D0BD802545A0100
(5.650000) can0 101#A9057D052B000000
(5.650000) can0 180#F50D6A02BB440000
(5.650000) can0 181#C50F610F46000000
(5.700000) can0 100#670BC802545A0100
(5.700000) can0 101#BA058E052B000000
(5.700000) can0 180#F50D5D02BB440000
(5.700000) can0 181#C50F610F46000000
(5.750000) can0 100#A60BF002545A0100
(5.750000) can0 101#CC059F052C000000
(5.750000) can0 180#F50D7F02BB440000
(5.750000) can0 181#C50F610F46000000
(5.800000) can0 100#A40BE202505A0100
(5.800000) can0 101#DF05B1052C000000
(5.800000) can0 180#F50D7402BB440000
(5.800000) can0 181#C50F610F46000000
(5.850000) can0 100#AA0B0103555A0100
(5.850000) can0 101#F205C4052D000000
(5.850000) can0 180#F50D8E02BA440000
(5.850000) can0 181#C40F600F46000000
(5.900000) can0 100#D10BED02515A0100
(5.900000) can0 101#0506D7052D000000
(5.900000) can0 180#F50D7C02BA440000
(5.900000) can0 181#C40F600F46000000
(5.950000) can0 100#B30BF402535A0100
(5.950000) can0 101#1906EA052E000000
(5.950000) can0 180#F50D8202BA440000
(5.950000) can0 181#C40F600F46000000
(6.000000) can0 100#DC0B0603525A0100
(6.000000) can0 101#2D06FE052F000000
(6.000000) can0 180#F50D9202BA440000
(6.000000) can0 181#C40F600F46000000
(6.050000) can0 100#DD0B1303535A0100
(6.050000) can0 101#420612062F000000
(6.050000) can0 180#F50D9D02BA440000
(6.050000) can0 181#C40F600F46000000
(6.100000) can0 100#DB0B2A03565B0100
(6.100000) can0 101#5706260630000000
(6.100000) can0 180#F50DB102BA440000
(6.100000) can0 181#C40F600F46000000
(6.150000) can0 100#110C2E03525B0100
(6.150000) can0 101#6C063A0630000000
(6.150000) can0 180#F50DB402BA440000
(6.150000) can0 181#C40F600F46000000
(6.200000) can0 100#130C3D03545B0100
(6.200000) can0 101#81064F0631000000
(6.200000) can0 180#F50DC102BA440000
(6.200000) can0 181#C40F600F46000000
(6.250000) can0 100#F90B4803545B0100
(6.250000) can0 101#9606630632000000
(6.250000) can0 180#F40DCA02BA440000
(6.250000) can0 181#C40F600F46000000
(6.300000) can0 100#150C5903525B0100
(6.300000) can0 101#AB06780632000000
(6.300000) can0 180#F40DD902BA440000
(6.300000) can0 181#C40F600F46000000
(6.350000) can0 100#220C4E03545B0100
(6.350000) can0 101#C0068D0633000000
(6.350000) can0 180#F40DCF02BA440000
(6.350000) can0 181#C40F600F46000000
(6.400000) can0 100#360C5803555B0100
(6.400000) can0 101#D606A10633000000
(6.400000) can0 180#F40DD802BA440000
(6.400000) can0 181#C40F600F46000000
(6.450000) can0 100#440C7C03525B0100
(6.450000) can0 101#EB06B50634000000
(6.450000) can0 180#F40DF702BA440000
(6.450000) can0 181#C40F600F46000000
(6.500000) can0 100#6F0C7A03545B0100
(6.500000) can0 101#FF06CA0635000000
(6.500000) can0 180#F40DF402BA440000
(6.500000) can0 181#C40F600F46000000
(6.550000) can0 100#670C6B03555B0100
(6.550000) can0 101#1407DE0635000000
(6.550000) can0 180#F40DE802BA440000
(6.550000) can0 181#C40F600F46000000
(6.600000) can0 100#6D0C8D03535B0100
(6.600000) can0 101#2807F10636000000
(6.600000) can0 180#F40D0403BA440000
(6.600000) can0 181#C40F600F46000000
(6.650000) can0 100#7C0C9103555B0100
(6.650000) can0 101#3C07050736000000
(6.650000) can0 180#F40D0803BA440000
(6.650000) can0 181#C40F600F46000000
(6.700000) can0 100#890CAD03525B0100
(6.700000) can0 101#5007180737000000
(6.700000) can0 180#F40D2003BA440000
(6.700000) can0 181#C40F600F46000000
(6.750000) can0 100#830C9603545B0100
(6.750000) can0 101#63072B0738000000
(6.750000) can0 180#F40D0C03BA440000
(6.750000) can0 181#C40F600F46000000
(6.800000) can0 100#AB0CA903525B0100
(6.800000) can0 101#76073D0738000000
(6.800000) can0 180#F40D1D03BA440000
(6.800000) can0 181#C40F600F46000000
(6.850000) can0 100#BE0CC003555B0100
(6.850000) can0 101#88074E0739000000
(6.850000) can0 180#F40D3003BA440000
(6.850000) can0 181#C40F600F46000000
(6.900000) can0 100#A90CAE03555B0100
(6.900000) can0 101#9A075F0739000000
(6.900000) can0 180#F40D2103BA440000
(6.900000) can0 181#C40F600F46000000
(6.950000) can0 100#C40CD803565B0100
(6.950000) can0 101#AB0770073A000000
(6.950000) can0 180#F40D4403BA440000
(6.950000) can0 181#C40F600F46000000
(7.000000) can0 100#CB0CD703555B0100
(7.000000) can0 101#BB0780073A000000
(7.000000) can0 180#F40D4403BA440000
(7.000000) can0 181#C40F600F46000000
(7.050000) can0 100#E60CD903555B0100
(7.050000) can0 101#CB078F073B000000
(7.050000) can0 180#F40D4603BA440000
(7.050000) can0 181#C40F600F46000000
(7.100000) can0 100#ED0CCD03535C0100
(7.100000) can0 101#DA079E073B000000
(7.100000) can0 180#F30D3B03BA440000
(7.100000) can0 181#C40F600F46000000
(7.150000) can0 100#FD0CD803545C0100
(7.150000) can0 101#E807AB073C000000
(7.150000) can0 180#F30D4503BA440000
(7.150000) can0 181#C40F600F46000000
(7.200000) can0 100#E20C0104545C0100
(7.200000) can0 101#F507B8073C000000
(7.200000) can0 180#F30D6703BA440000
(7.200000) can0 181#C40F600F46000000
(7.250000) can0 100#E30CEB03525C0100
(7.250000) can0 101#0208C4073C000000
(7.250000) can0 180#F30D5403BA440000
(7.250000) can0 181#C40F600F46000000
(7.300000) can0 100#030D0704535C0100
(7.300000) can0 101#0D08D0073D000000
(7.300000) can0 180#F30D6C03BA440000
(7.300000) can0 181#C40F600F46000000
(7.350000) can0 100#2A0D0404525C0100
(7.350000) can0 101#1808DA073D000000
(7.350000) can0 180#F30D6A03BA440000
(7.350000) can0 181#C40F600F46000000
(7.400000) can0 100#2A0D0904535C0100
(7.400000) can0 101#2208E3073D000000
(7.400000) can0 180#F30D6E03BA440000
(7.400000) can0 181#C40F600F46000000
(7.450000) can0 100#190D1604545C0100
(7.450000) can0 101#2B08EC073D000000
(7.450000) can0 180#F30D7903BA440000
(7.450000) can0 181#C40F600F46000000
(7.500000) can0 100#350D1704555C0100
(7.500000) can0 101#3308F4073E000000
(7.500000) can0 180#F30D7A03BA440000
(7.500000) can0 181#C40F600F46000000
(7.550000) can0 100#130D0604545C0100
(7.550000) can0 101#3A08FA073E000000
(7.550000) can0 180#F30D6C03B9440000
(7.550000) can0 181#C30F5F0F46000000
(7.600000) can0 100#360D1404545C0100
(7.600000) can0 101#3F0800083E000000
(7.600000) can0 180#F30D7703B9440000
(7.600000) can0 181#C30F5F0F46000000
(7.650000) can0 100#1B0D0504565C0100
(7.650000) can0 101#440805083E000000
(7.650000) can0 180#F30D6A03B9440000
(7.650000) can0 181#C30F5F0F46000000
(7.700000) can0 100#1E0D1004545C0100
(7.700000) can0 101#480808083E000000
(7.700000) can0 180#F30D7403B9440000
(7.700000) can0 181#C30F5F0F46000000
(7.750000) can0 100#170D0E04545C0100
(7.750000) can0 101#4B080B083E000000
(7.750000) can0 180#F30D7203B9440000
(7.750000) can0 181#C30F5F0F46000000
(7.800000) can0 100#3A0D0804555C0100
(7.800000) can0 101#4C080D083E000000
(7.800000) can0 180#F30D6D03B9440000
(7.800000) can0 181#C30F5F0F46000000
(7.850000) can0 100#310D1704565C0100
(7.850000) can0 101#4D080D083E000000
(7.850000) can0 180#F30D7A03B9440000
(7.850000) can0 181#C30F5F0F46000000
(7.900000) can0 100#290D2A04545C0100
(7.900000) can0 101#4D080D083E000000
(7.900000) can0 180#F30D8A03B9440000
(7.900000) can0 181#C30F5F0F46000000
(7.950000) can0 100#390D2704545C0100
(7.950000) can0 101#4B080B083E000000
(7.950000) can0 180#F20D8803B9440000
(7.950000) can0 181#C30F5F0F46000000
(8.000000) can0 100#240D0404565C0100
(8.000000) can0 101#480809083E000000
(8.000000) can0 180#F20D6A03B9440000
(8.000000) can0 181#C30F5F0F46000000
(8.050000) can0 100#380D2404535D0100
(8.050000) can0 101#450805083E000000
(8.050000) can0 180#F20D8503B9440000
(8.050000) can0 181#C30F5F0F46000000
(8.100000) can0 100#210D1E04555D0100
(8.100000) can0 101#400801083E000000
(8.100000) can0 180#F20D8003B9440000
(8.100000) can0 181#C30F5F0F46000000
(8.150000) can0 100#290D0604575D0100
(8.150000) can0 101#3B08FB073E000000
(8.150000) can0 180#F20D6B03B9440000
(8.150000) can0 181#C30F5F0F46000000
(8.200000) can0 100#1A0DFB03565D0100
(8.200000) can0 101#3408F5073E000000
(8.200000) can0 180#F20D6203B9440000
(8.200000) can0 181#C30F5F0F46000000
(8.250000) can0 100#240D0604575D0100
(8.250000) can0 101#2C08ED073E000000
(8.250000) can0 180#F20D6B03B9440000
(8.250000) can0 181#C30F5F0F46000000
(8.300000) can0 100#120DF703555D0100
(8.300000) can0 101#2308E5073D000000
(8.300000) can0 180#F20D5E03B9440000
(8.300000) can0 181#C30F5F0F46000000
(8.350000) can0 100#F10CFC03555D0100
(8.350000) can0 101#1A08DC073D000000
(8.350000) can0 180#F20D6303B9440000
(8.350000) can0 181#C30F5F0F46000000
(8.400000) can0 100#EA0C0104575D0100
(8.400000) can0 101#0F08D1073D000000
(8.400000) can0 180#F20D6703B9440000
(8.400000) can0 181#C30F5F0F46000000
(8.450000) can0 100#FD0CE403565D0100
(8.450000) can0 101#0408C6073C000000
(8.450000) can0 180#F20D4E03B9440000
(8.450000) can0 181#C30F5F0F46000000
(8.500000) can0 100#E60CE903545D0100
(8.500000) can0 101#F707BA073C000000
(8.500000) can0 180#F20D5303B9440000
(8.500000) can0 181#C30F5F0F46000000
(8.550000) can0 100#E70CF303545D0100
(8.550000) can0 101#EA07AD073C000000
(8.550000) can0 180#F20D5C03B9440000
(8.550000) can0 181#C30F5F0F46000000
(8.600000) can0 100#D70CD103585D0100
(8.600000) can0 101#DC07A0073B000000
(8.600000) can0 180#F20D3F03B9440000
(8.600000) can0 181#C30F5F0F46000000
(8.650000) can0 100#DE0CEF03565D0100
(8.650000) can0 101#CD0791073B000000
(8.650000) can0 180#F20D5803B9440000
(8.650000) can0 181#C30F5F0F46000000
(8.700000) can0 100#DB0CDE03555D0100
(8.700000) can0 101#BE0782073A000000
(8.700000) can0 180#F20D4A03B9440000
(8.700000) can0 181#C30F5F0F46000000
(8.750000) can0 100#D70CDD03575D0100
(8.750000) can0 101#AE0773073A000000
(8.750000) can0 180#F10D4903B9440000
(8.750000) can0 181#C30F5F0F46000000
(8.800000) can0 100#A00CB503585D0100
(8.800000) can0 101#9D07620739000000
(8.800000) can0 180#F10D2703B9440000
(8.800000) can0 181#C30F5F0F46000000
(8.850000) can0 100#BB0CBD03575D0100
(8.850000) can0 101#8B07510739000000
(8.850000) can0 180#F10D2D03B9440000
(8.850000) can0 181#C30F5F0F46000000
(8.900000) can0 100#B10CBC03585D0100
(8.900000) can0 101#7907400738000000
(8.900000) can0 180#F10D2D03B9440000
(8.900000) can0 181#C30F5F0F46000000
(8.950000) can0 100#A00CB203585D0100
(8.950000) can0 101#66072D0738000000
(8.950000) can0 180#F10D2403B9440000
(8.950000) can0 181#C30F5F0F46000000
(9.000000) can0 100#A00CB103585E0100
(9.000000) can0 101#53071B0737000000
(9.000000) can0 180#F10D2303B9440000
(9.000000) can0 181#C30F5F0F46000000
(9.050000) can0 100#640C8D03555E0100
(9.050000) can0 101#4007080737000000
(9.050000) can0 180#F10D0503B9440000
(9.050000) can0 181#C30F5F0F46000000
(9.100000) can0 100#8F0C8703555E0100
(9.100000) can0 101#2C07F50636000000
(9.100000) can0 180#F10DFF02B9440000
(9.100000) can0 181#C30F5F0F46000000
(9.150000) can0 100#4D0C8903565E0100
(9.150000) can0 101#1707E10635000000
(9.150000) can0 180#F10D0103B9440000
(9.150000) can0 181#C30F5F0F46000000
(9.200000) can0 100#410C8203545E0100
(9.200000) can0 101#0307CD0635000000
(9.200000) can0 180#F10DFB02B8440000
(9.200000) can0 181#C20F5E0F46000000
(9.250000) can0 100#510C5D03545E0100
(9.250000) can0 101#EE06B90634000000
(9.250000) can0 180#F10DDC02B8440000
(9.250000) can0 181#C20F5E0F46000000
(9.300000) can0 100#4F0C5C03575E0100
(9.300000) can0 101#D906A40634000000
(9.300000) can0 180#F10DDB02B8440000
(9.300000) can0 181#C20F5E0F46000000
(9.350000) can0 100#280C5803575E0100
(9.350000) can0 101#C406900633000000
(9.350000) can0 180#F10DD802B8440000
(9.350000) can0 181#C20F5E0F46000000
(9.400000) can0 100#370C5A03585E0100
(9.400000) can0 101#AF067B0632000000
(9.400000) can0 180#F10DD902B8440000
(9.400000) can0 181#C20F5E0F46000000
(9.450000) can0 100#300C4803555E0100
(9.450000) can0 101#9906670632000000
(9.450000) can0 180#F10DCA02B8440000
(9.450000) can0 181#C20F5E0F46000000
(9.500000) can0 100#130C3603555E0100
(9.500000) can0 101#8406520631000000
(9.500000) can0 180#F10DBA02B8440000
(9.500000) can0 181#C20F5E0F46000000
(9.550000) can0 100#150C2503555E0100
(9.550000) can0 101#6F063E0630000000
(9.550000) can0 180#F10DAC02B8440000
(9.550000) can0 181#C20F5E0F46000000
(9.600000) can0 100#EE0B2303575E0100
(9.600000) can0 101#5A06290630000000
(9.600000) can0 180#F00DAA02B8440000
(9.600000) can0 181#C20F5E0F46000000
(9.650000) can0 100#EC0B1003555E0100
(9.650000) can0 101#450615062F000000
(9.650000) can0 180#F00D9A02B8440000
(9.650000) can0 181#C20F5E0F46000000
(9.700000) can0 100#E50BFE02555E0100
(9.700000) can0 101#310601062F000000
(9.700000) can0 180#F00D8B02B8440000
(9.700000) can0 181#C20F5E0F46000000
(9.750000) can0 100#B40B0303565E0100
(9.750000) can0 101#1C06ED052E000000
(9.750000) can0 180#F00D9002B8440000
(9.750000) can0 181#C20F5E0F46000000
(9.800000) can0 100#AF0BE802555E0100
(9.800000) can0 101#0806DA052D000000
(9.800000) can0 180#F00D7902B8440000
(9.800000) can0 181#C20F5E0F46000000
(9.850000) can0 100#970BE602555E0100
(9.850000) can0 101#F505C7052D000000
(9.850000) can0 180#F00D7702B8440000
(9.850000) can0 181#C20F5E0F46000000
(9.900000) can0 100#940BF702565E0100
(9.900000) can0 101#E205B4052C000000
(9.900000) can0 180#F00D8502B8440000
(9.900000) can0 181#C20F5E0F46000000
(9.950000) can0 100#840BCB02555E0100
(9.950000) can0 101#CF05A2052C000000
(9.950000) can0 180#F00D6002B8440000
(9.950000) can0 181#C20F5E0F46000000
(10.000000) can0 100#6D0BDF02575E0100
(10.000000) can0 101#BD0591052B000000
(10.000000) can0 180#F00D7002B8440000
(10.000000) can0 181#C20F5E0F46000000
(10.050000) can0 100#8A0BD502565E0100
(10.050000) can0 101#AB0580052B000000
(10.050000) can0 180#F00D6802B8450000
(10.050000) can0 181#C20F5E0F47000000
(10.100000) can0 100#6F0BD002595E0100
(10.100000) can0 101#9A056F052A000000
(10.100000) can0 180#F00D6402B8450000
(10.100000) can0 181#C20F5E0F47000000
(10.150000) can0 100#540BC402585F0100
(10.150000) can0 101#8A0560052A000000
(10.150000) can0 180#F00D5A02B8450000
(10.150000) can0 181#C20F5E0F47000000
(10.200000) can0 100#600BB402575F0100
(10.200000) can0 101#7B05500529000000
(10.200000) can0 180#F00D4C02B8450000
(10.200000) can0 181#C20F5E0F47000000
(10.250000) can0 100#4D0BB802585F0100
(10.250000) can0 101#6C05420529000000
(10.250000) can0 180#F00D4F02B8450000
(10.250000) can0 181#C20F5E0F47000000
(10.300000) can0 100#550B9E02585F0100
(10.300000) can0 101#5E05350528000000
(10.300000) can0 180#F00D3902B8450000
(10.300000) can0 181#C20F5E0F47000000
(10.350000) can0 100#290B9402595F0100
(10.350000) can0 101#5105280528000000
(10.350000) can0 180#F00D3102B8450000
(10.350000) can0 181#C20F5E0F47000000
(10.400000) can0 100#3A0BA502595F0100
(10.400000) can0 101#44051C0528000000
(10.400000) can0 180#F00D3F02B8450000
(10.400000) can0 181#C20F5E0F47000000
(10.450000) can0 100#1F0B9402565F0100
(10.450000) can0 101#3905110527000000
(10.450000) can0 180#EF0D3102B8450000
(10.450000) can0 181#C20F5E0F47000000
(10.500000) can0 100#460B9002585F0100
(10.500000) can0 101#2E05060527000000
(10.500000) can0 180#EF0D2E02B8450000
(10.500000) can0 181#C20F5E0F47000000
(10.550000) can0 100#0B0B7E02595F0100
(10.550000) can0 101#2405FD0427000000
(10.550000) can0 180#EF0D1F02B8450000
(10.550000) can0 181#C20F5E0F47000000
(10.600000) can0 100#0B0B7302575F0100
(10.600000) can0 101#1C05F50426000000
(10.600000) can0 180#EF0D1502B8450000
(10.600000) can0 181#C20F5E0F47000000
(10.650000) can0 100#0B0B9502575F0100
(10.650000) can0 101#1405ED0426000000
(10.650000) can0 180#EF0D3202B8450000
(10.650000) can0 181#C20F5E0F47000000
(10.700000) can0 100#200B7002565F0100
(10.700000) can0 101#0D05E70426000000
(10.700000) can0 180#EF0D1302B8450000
(10.700000) can0 181#C20F5E0F47000000
(10.750000) can0 100#100B8B02575F0100
(10.750000) can0 101#0805E10426000000
(10.750000) can0 180#EF0D2A02B8450000
(10.750000) can0 181#C20F5E0F47000000
(10.800000) can0 100#0C0B7802595F0100
(10.800000) can0 101#0305DD0426000000
(10.800000) can0 180#EF0D1902B8450000
(10.800000) can0 181#C20F5E0F47000000
(10.850000) can0 100#F00A8A02585F0100
(10.850000) can0 101#FF04D90426000000
(10.850000) can0 180#EF0D2802B7450000
(10.850000) can0 181#C10F5D0F47000000
(10.900000) can0 100#1D0B73025A5F0100
(10.900000) can0 101#FD04D70426000000
(10.900000) can0 180#EF0D1502B7450000
(10.900000) can0 181#C10F5D0F47000000
(10.950000) can0 100#110B6402595F0100
(10.950000) can0 101#FB04D50426000000
(10.950000) can0 180#EF0D0902B7450000
(10.950000) can0 181#C10F5D0F47000000
(11.000000) can0 100#0C0B6E02555F0100
(11.000000) can0 101#FB04D50426000000
(11.000000) can0 180#EF0D1102B7450000
(11.000000) can0 181#C10F5D0F47000000
(11.050000) can0 100#F20A8102575F0100
(11.050000) can0 101#FC04D50426000000
(11.050000) can0 180#EF0D2102B7450000
(11.050000) can0 181#C10F5D0F47000000
(11.100000) can0 100#1B0B6C02585F0100
(11.100000) can0 101#FD04D70426000000
(11.100000) can0 180#EF0D0F02B7450000
(11.100000) can0 181#C10F5D0F47000000
(11.150000) can0 100#090B7602565F0100
(11.150000) can0 101#0005DA0426000000
(11.150000) can0 180#EF0D1802B7450000
(11.150000) can0 181#C10F5D0F47000000
(11.200000) can0 100#2C0B7302575F0100
(11.200000) can0 101#0405DD0426000000
(11.200000) can0 180#EF0D1502B7450000
(11.200000) can0 181#C10F5D0F47000000
(11.250000) can0 100#180B8602565F0100
(11.250000) can0 101#0905E20426000000
(11.250000) can0 180#EE0D2502B7450000
(11.250000) can0 181#C10F5D0F47000000
(11.300000) can0 100#040B7402575F0100
(11.300000) can0 101#0F05E80426000000
(11.300000) can0 180#EE0D1602B7450000
(11.300000) can0 181#C10F5D0F47000000
(11.350000) can0 100#050B76025A5F0100
(11.350000) can0 101#1505EE0426000000
(11.350000) can0 180#EE0D1802B7450000
(11.350000) can0 181#C10F5D0F47000000
(11.400000) can0 100#010B8502575F0100
(11.400000) can0 101#1D05F60427000000
(11.400000) can0 180#EE0D2402B7450000
(11.400000) can0 181#C10F5D0F47000000
(11.450000) can0 100#180B8102575F0100
(11.450000) can0 101#2605FF0427000000
(11.450000) can0 180#EE0D2002B7450000
(11.450000) can0 181#C10F5D0F47000000
(11.500000) can0 100#370B8E02575F0100
(11.500000) can0 101#3005080527000000
(11.500000) can0 180#EE0D2C02B7450000
(11.500000) can0 181#C10F5D0F47000000
(11.550000) can0 100#4B0BA10257600100
(11.550000) can0 101#3B05130527000000
(11.550000) can0 180#EE0D3C02B7450000
(11.550000) can0 181#C10F5D0F47000000
(11.600000) can0 100#430BAD0258600100
(11.600000) can0 101#46051E0528000000
(11.600000) can0 180#EE0D4602B7450000
(11.600000) can0 181#C10F5D0F47000000
(11.650000) can0 100#440BA70256600100
(11.650000) can0 101#53052A0528000000
(11.650000) can0 180#EE0D4102B7450000
(11.650000) can0 181#C10F5D0F47000000
(11.700000) can0 100#5E0B97025A600100
(11.700000) can0 101#6005370528000000
(11.700000) can0 180#EE0D3302B7450000
(11.700000) can0 181#C10F5D0F47000000
(11.750000) can0 100#480BB90258600100
(11.750000) can0 101#6E05450529000000
(11.750000) can0 180#EE0D5002B7450000
(11.750000) can0 181#C10F5D0F47000000
(11.800000) can0 100#500BA70257600100
(11.800000) can0 101#7D05530529000000
(11.800000) can0 180#EE0D4102B7450000
(11.800000) can0 181#C10F5D0F47000000
(11.850000) can0 100#730BD00258600100
(11.850000) can0 101#8D0562052A000000
(11.850000) can0 180#EE0D6402B7450000
(11.850000) can0 181#C10F5D0F47000000
(11.900000) can0 100#710BB5025B600100
(11.900000) can0 101#9D0572052A000000
(11.900000) can0 180#EE0D4D02B7450000
(11.900000) can0 181#C10F5D0F47000000
(11.950000) can0 100#780BC7025A600100
(11.950000) can0 101#AE0583052B000000
(11.950000) can0 180#EE0D5D02B7450000
(11.950000) can0 181#C10F5D0F47000000
(12.000000) can0 100#6F0BEA0257600100
(12.000000) can0 101#C00594052B000000
(12.000000) can0 180#EE0D7A02B7450000
(12.000000) can0 181#C10F5D0F47000000
(12.050000) can0 100#980BF20256600100
(12.050000) can0 101#D205A5052C000000
(12.050000) can0 180#EE0D8102B7450000
(12.050000) can0 181#C10F5D0F47000000
(12.100000) can0 100#AA0BE0025B600100
(12.100000) can0 101#E505B8052C000000
(12.100000) can0 180#ED0D7202B7450000
(12.100000) can0 181#C10F5D0F47000000
(12.150000) can0 100#BC0BF20258600100
(12.150000) can0 101#F805CA052D000000
(12.150000) can0 180#ED0D8102B7450000
(12.150000) can0 181#C10F5D0F47000000
(12.200000) can0 100#D20BF00258600100
(12.200000) can0 101#0C06DD052E000000
(12.200000) can0 180#ED0D7F02B7450000
(12.200000) can0 181#C10F5D0F47000000
(12.250000) can0 100#CE0B06035B600100
(12.250000) can0 101#2006F1052E000000
(12.250000) can0 180#ED0D9202B7450000
(12.250000) can0 181#C10F5D0F47000000
(12.300000) can0 100#CA0B0A0358600100
(12.300000) can0 101#340604062F000000
(12.300000) can0 180#ED0D9502B7450000
(12.300000) can0 181#C10F5D0F47000000
(12.350000) can0 100#F60B140358600100
(12.350000) can0 101#490618062F000000
(12.350000) can0 180#ED0D9E02B7450000
(12.350000) can0 181#C10F5D0F47000000
(12.400000) can0 100#E10B370357600100
(12.400000) can0 101#5E062D0630000000
(12.400000) can0 180#ED0DBC02B7450000
(12.400000) can0 181#C10F5D0F47000000
(12.450000) can0 100#FF0B2E035A600100
(12.450000) can0 101#7306410631000000
(12.450000) can0 180#ED0DB402B7450000
(12.450000) can0 181#C10F5D0F47000000
(12.500000) can0 100#FF0B4D0359600100
(12.500000) can0 101#8806560631000000
(12.500000) can0 180#ED0DCE02B6450000
(12.500000) can0 181#C00F5C0F47000000
(12.550000) can0 100#180C580358600100
(12.550000) can0 101#9D066A0632000000
(12.550000) can0 180#ED0DD802B6450000
(12.550000) can0 181#C00F5C0F47000000
(12.600000) can0 100#270C4C035A600100
(12.600000) can0 101#B2067F0632000000
(12.600000) can0 180#ED0DCD02B6450000
(12.600000) can0 181#C00F5C0F47000000
(12.650000) can0 100#2A0C640358600100
(12.650000) can0 101#C806930633000000
(12.650000) can0 180#ED0DE202B6450000
(12.650000) can0 181#C00F5C0F47000000
(12.700000) can0 100#500C580359600100
(12.700000) can0 101#DD06A80634000000
(12.700000) can0 180#ED0DD802B6450000
(12.700000) can0 181#C00F5C0F47000000
(12.750000) can0 100#670C6C0358610100
(12.750000) can0 101#F206BC0634000000
(12.750000) can0 180#ED0DE802B6450000
(12.750000) can0 181#C00F5C0F47000000
(12.800000) can0 100#440C8C0359610100
(12.800000) can0 101#0607D00635000000
(12.800000) can0 180#ED0D0303B6450000
(12.800000) can0 181#C00F5C0F47000000
(12.850000) can0 100#590C750359610100
(12.850000) can0 101#1B07E40635000000
(12.850000) can0 180#ED0DF002B6450000
(12.850000) can0 181#C00F5C0F47000000
(12.900000) can0 100#790C7C0357610100
(12.900000) can0 101#2F07F80636000000
(12.900000) can0 180#ED0DF702B6450000
(12.900000) can0 181#C00F5C0F47000000
(12.950000) can0 100#9B0C95035B610100
(12.950000) can0 101#43070B0737000000
(12.950000) can0 180#EC0D0B03B6450000
(12.950000) can0 181#C00F5C0F47000000
(13.000000) can0 100#A30CA00358610100
(13.000000) can0 101#57071E0737000000
(13.000000) can0 180#EC0D1503B6450000
(13.000000) can0 181#C00F5C0F47000000
(13.050000) can0 100#9C0CA10358610100
(13.050000) can0 101#6A07310738000000
(13.050000) can0 180#EC0D1503B6450000
(13.050000) can0 181#C00F5C0F47000000
(13.100000) can0 100#C40CA90359610100
(13.100000) can0 101#7C07430738000000
(13.100000) can0 180#EC0D1C03B6450000
(13.100000) can0 181#C00F5C0F47000000
(13.150000) can0 100#AC0CCD0359610100
(13.150000) can0 101#8E07540739000000
(13.150000) can0 180#EC0D3B03B6450000
(13.150000) can0 181#C00F5C0F47000000
(13.200000) can0 100#D50CD3035B610100
(13.200000) can0 101#A007650739000000
(13.200000) can0 180#EC0D4003B6450000
(13.200000) can0 181#C00F5C0F47000000
(13.250000) can0 100#DB0CC90357610100
(13.250000) can0 101#B00775073A000000
(13.250000) can0 180#EC0D3803B6450000
(13.250000) can0 181#C00F5C0F47000000
(13.300000) can0 100#D40CE1035B610100
(13.300000) can0 101#C10785073A000000
(13.300000) can0 180#EC0D4C03B6450000
(13.300000) can0 181#C00F5C0F47000000
(13.350000) can0 100#D20CE00357610100
(13.350000) can0 101#D00794073B000000
(13.350000) can0 180#EC0D4B03B6450000
(13.350000) can0 181#C00F5C0F47000000
(13.400000) can0 100#E60CD50359610100
(13.400000) can0 101#DF07A2073B000000
(13.400000) can0 180#EC0D4203B6450000
(13.400000) can0 181#C00F5C0F47000000
(13.450000) can0 100#E70CEC035A610100
(13.450000) can0 101#ED07B0073C000000
(13.450000) can0 180#EC0D5603B6450000
(13.450000) can0 181#C00F5C0F47000000
(13.500000) can0 100#F60CEA035B610100
(13.500000) can0 101#FA07BC073C000000
(13.500000) can0 180#EC0D5303B6450000
(13.500000) can0 181#C00F5C0F47000000
(13.550000) can0 100#0C0DFA035B610100
(13.550000) can0 101#0608C8073C000000
(13.550000) can0 180#EC0D6103B6450000
(13.550000) can0 181#C00F5C0F47000000
(13.600000) can0 100#180DEA0359610100
(13.600000) can0 101#1108D3073D000000
(13.600000) can0 180#EC0D5403B6450000
(13.600000) can0 181#C00F5C0F47000000
(13.650000) can0 100#1B0D0E045B610100
(13.650000) can0 101#1C08DD073D000000
(13.650000) can0 180#EC0D7203B6450000
(13.650000) can0 181#C00F5C0F47000000
(13.700000) can0 100#1E0D130458610100
(13.700000) can0 101#2508E6073D000000
(13.700000) can0 180#EC0D7703B6450000
(13.700000) can0 181#C00F5C0F47000000
(13.750000) can0 100#1A0DF8035A620100
(13.750000) can0 101#2E08EF073E000000
(13.750000) can0 180#EC0D6003B6450000
(13.750000) can0 181#C00F5C0F47000000
(13.800000) can0 100#240D1D0458620100
(13.800000) can0 101#3508F6073E000000
(13.800000) can0 180#EB0D7F03B6450000
(13.800000) can0 181#C00F5C0F47000000
(13.850000) can0 100#200D12045A620100
(13.850000) can0 101#3C08FC073E000000
(13.850000) can0 180#EB0D7603B6450000
(13.850000) can0 181#C00F5C0F47000000
(13.900000) can0 100#340D110459620100
(13.900000) can0 101#410802083E000000
(13.900000) can0 180#EB0D7403B6450000
(13.900000) can0 181#C00F5C0F47000000
(13.950000) can0 100#150D150458620100
(13.950000) can0 101#460806083E000000
(13.950000) can0 180#EB0D7803B6450000
(13.950000) can0 181#C00F5C0F47000000
(14.000000) can0 100#220D20045A620100
(14.000000) can0 101#490809083E000000
(14.000000) can0 180#EB0D8103B6450000
(14.000000) can0 181#C00F5C0F47000000
(14.050000) can0 100#430D270459620100
(14.050000) can0 101#4B080C083E000000
(14.050000) can0 180#EB0D8803B6450000
(14.050000) can0 181#C00F5C0F47000000
(14.100000) can0 100#270D130459620100
(14.100000) can0 101#4D080D083E000000
(14.100000) can0 180#EB0D7603B6450000
(14.100000) can0 181#C00F5C0F47000000
(14.150000) can0 100#3E0D29045D620100
(14.150000) can0 101#4D080D083E000000
(14.150000) can0 180#EB0D8903B6450000
(14.150000) can0 181#C00F5C0F47000000
(14.200000) can0 100#140D1F0458620100
(14.200000) can0 101#4C080C083E000000
(14.200000) can0 180#EB0D8103B5450000
(14.200000) can0 181#BF0F5B0F47000000
(14.250000) can0 100#4B0D23045B620100
(14.250000) can0 101#4A080B083E000000
(14.250000) can0 180#EB0D8403B5450000
(14.250000) can0 181#BF0F5B0F47000000
(14.300000) can0 100#130D1D0459620100
(14.300000) can0 101#470808083E000000
(14.300000) can0 180#EB0D7F03B5450000
(14.300000) can0 181#BF0F5B0F47000000
(14.350000) can0 100#250D1D0459620100
(14.350000) can0 101#430804083E000000
(14.350000) can0 180#EB0D7F03B5450000
(14.350000) can0 181#BF0F5B0F47000000
(14.400000) can0 100#0A0D1F045C620100
(14.400000) can0 101#3E08FF073E000000
(14.400000) can0 180#EB0D8003B5450000
(14.400000) can0 181#BF0F5B0F47000000
(14.450000) can0 100#1A0D02045B620100
(14.450000) can0 101#3808F9073E000000
(14.450000) can0 180#EB0D6803B5450000
(14.450000) can0 181#BF0F5B0F47000000
(14.500000) can0 100#210D18045D620100
(14.500000) can0 101#3108F2073E000000
(14.500000) can0 180#EB0D7B03B5450000
(14.500000) can0 181#BF0F5B0F47000000
(14.550000) can0 100#FE0C17045A620100
(14.550000) can0 101#2908EB073D000000
(14.550000) can0 180#EB0D7A03B5450000
(14.550000) can0 181#BF0F5B0F47000000
(14.600000) can0 100#020D14045D620100
(14.600000) can0 101#2008E2073D000000
(14.600000) can0 180#EA0D7803B5450000
(14.600000) can0 181#BF0F5B0F47000000
(14.650000) can0 100#090DF5035C630100
(14.650000) can0 101#1608D8073D000000
(14.650000) can0 180#EA0D5D03B5450000
(14.650000) can0 181#BF0F5B0F47000000
(14.700000) can0 100#E70C060459630100
(14.700000) can0 101#0B08CE073D000000
(14.700000) can0 180#EA0D6B03B5450000
(14.700000) can0 181#BF0F5B0F47000000
(14.750000) can0 100#070DE6035B630100
(14.750000) can0 101#0008C2073C000000
(14.750000) can0 180#EA0D5003B5450000
(14.750000) can0 181#BF0F5B0F47000000
(14.800000) can0 100#EB0CF1035A630100
(14.800000) can0 101#F307B6073C000000
(14.800000) can0 180#EA0D5A03B5450000
(14.800000) can0 181#BF0F5B0F47000000
(14.850000) can0 100#E70CDD035A630100
(14.850000) can0 101#E607A9073B000000
(14.850000) can0 180#EA0D4903B5450000
(14.850000) can0 181#BF0F5B0F47000000
(14.900000) can0 100#D00CDB035B630100
(14.900000) can0 101#D7079B073B000000
(14.900000) can0 180#EA0D4703B5450000
(14.900000) can0 181#BF0F5B0F47000000
(14.950000) can0 100#C90CDB035B630100
(14.950000) can0 101#C8078C073B000000
(14.950000) can0 180#EA0D4703B5450000
(14.950000) can0 181#BF0F5B0F47000000
(15.000000) can0 100#7D19610D59630100
(15.000000) can0 101#251B541ACC000000
(15.000000) can0 180#EA0D600BB5450000
(15.000000) can0 181#BF0F5B0F47000000
(15.050000) can0 100#6B19620D5B630100
(15.050000) can0 101#281B571ACC000000
(15.050000) can0 180#EA0D600BB5450000
(15.050000) can0 181#BF0F5B0F47000000
(15.100000) can0 100#6F19760D5E630100
(15.100000) can0 101#2A1B5A1ACD000000
(15.100000) can0 180#EA0D710BB5450000
(15.100000) can0 181#BF0F5B0F47000000
(15.150000) can0 100#6B196D0D5A640100
(15.150000) can0 101#2D1B5C1ACD000000
(15.150000) can0 180#EA0D6A0BB5450000
(15.150000) can0 181#BF0F5B0F47000000
(15.200000) can0 100#5A197B0D5C640100
(15.200000) can0 101#2F1B5E1ACD000000
(15.200000) can0 180#EA0D750BB5450000
(15.200000) can0 181#BF0F5B0F47000000
(15.250000) can0 100#5F19750D5C640100
(15.250000) can0 101#311B601ACD000000
(15.250000) can0 180#EA0D700BB5450000
(15.250000) can0 181#BF0F5B0F47000000
(15.300000) can0 100#7419790D5C640100
(15.300000) can0 101#331B621ACD000000
(15.300000) can0 180#EA0D740BB5450000
(15.300000) can0 181#BF0F5B0F47000000
(15.350000) can0 100#7E19760D5B640100
(15.350000) can0 101#351B641ACD000000
(15.350000) can0 180#EA0D710BB5450000
(15.350000) can0 181#BF0F5B0F47000000
(15.400000) can0 100#74196A0D5D640100
(15.400000) can0 101#361B651ACD000000
(15.400000) can0 180#EA0D670BB5450000
(15.400000) can0 181#BF0F5B0F47000000
(15.450000) can0 100#70197C0D5F650100
(15.450000) can0 101#371B661ACD000000
(15.450000) can0 180#E90D760BB5450000
(15.450000) can0 181#BF0F5B0F47000000
(15.500000) can0 100#60197D0D5F650100
(15.500000) can0 101#381B671ACD000000
(15.500000) can0 180#E90D770BB5450000
(15.500000) can0 181#BF0F5B0F47000000
(15.550000) can0 100#5719750D5B650100
(15.550000) can0 101#391B681ACD000000
(15.550000) can0 180#E90D700BB5450000
(15.550000) can0 181#BF0F5B0F47000000
(15.600000) can0 100#6F19840D5C650100
(15.600000) can0 101#3A1B681ACD000000
(15.600000) can0 180#E90D7D0BB5450000
(15.600000) can0 181#BF0F5B0F47000000
(15.650000) can0 100#5F19810D5E650100
(15.650000) can0 101#3A1B691ACD000000
(15.650000) can0 180#E90D7A0BB5450000
(15.650000) can0 181#BF0F5B0F47000000
(15.700000) can0 100#80197E0D5F650100
(15.700000) can0 101#3A1B691ACD000000
(15.700000) can0 180#E90D780BB5450000
(15.700000) can0 181#BF0F5B0F47000000
(15.750000) can0 100#5619860D60660100
(15.750000) can0 101#3A1B691ACD000000
(15.750000) can0 180#E90D7F0BB5450000
(15.750000) can0 181#BF0F5B0F47000000
(15.800000) can0 100#8919820D5D660100
(15.800000) can0 101#3A1B691ACD000000
(15.800000) can0 180#E90D7B0BB5450000
(15.800000) can0 181#BF0F5B0F47000000
(15.850000) can0 100#8A19860D5D660100
(15.850000) can0 101#391B681ACD000000
(15.850000) can0 180#E90D7F0BB4450000
(15.850000) can0 181#BE0F5A0F47000000
(15.900000) can0 100#64197F0D61660100
(15.900000) can0 101#381B671ACD000000
(15.900000) can0 180#E90D790BB4450000
(15.900000) can0 181#BE0F5A0F47000000
(15.950000) can0 100#6E19710D5E660100
(15.950000) can0 101#381B661ACD000000
(15.950000) can0 180#E90D6D0BB4450000
(15.950000) can0 181#BE0F5A0F47000000
(16.000000) can0 100#7519760D5D660100
(16.000000) can0 101#361B651ACD000000
(16.000000) can0 180#E90D710BB4450000
(16.000000) can0 181#BE0F5A0F47000000
(16.050000) can0 100#8519620D60670100
(16.050000) can0 101#351B641ACD000000
(16.050000) can0 180#E90D600BB4450000
(16.050000) can0 181#BE0F5A0F47000000
(16.100000) can0 100#4D19800D5F670100
(16.100000) can0 101#331B631ACD000000
(16.100000) can0 180#E90D7A0BB4450000
(16.100000) can0 181#BE0F5A0F47000000
(16.150000) can0 100#8119650D62670100
(16.150000) can0 101#321B611ACD000000
(16.150000) can0 180#E90D620BB4450000
(16.150000) can0 181#BE0F5A0F47000000
(16.200000) can0 100#7A197F0D61670100
(16.200000) can0 101#301B5F1ACD000000
(16.200000) can0 180#E90D790BB4450000
(16.200000) can0 181#BE0F5A0F47000000
(16.250000) can0 100#60195F0D5E670100
(16.250000) can0 101#2E1B5D1ACD000000
(16.250000) can0 180#E80D5E0BB4450000
(16.250000) can0 181#BE0F5A0F47000000
(16.300000) can0 100#58196C0D62670100
(16.300000) can0 101#2B1B5B1ACD000000
(16.300000) can0 180#E80D690BB4450000
(16.300000) can0 181#BE0F5A0F47000000
(16.350000) can0 100#79195D0D60680100
(16.350000) can0 101#291B581ACC000000
(16.350000) can0 180#E80D5C0BB4450000
(16.350000) can0 181#BE0F5A0F47000000
(16.400000) can0 100#6B19740D5E680100
(16.400000) can0 101#261B551ACC000000
(16.400000) can0 180#E80D6F0BB4450000
(16.400000) can0 181#BE0F5A0F47000000
(16.450000) can0 100#5A19720D62680100
(16.450000) can0 101#231B521ACC000000
(16.450000) can0 180#E80D6E0BB4450000
(16.450000) can0 181#BE0F5A0F47000000
(16.500000) can0 100#5719570D61680100
(16.500000) can0 101#201B4F1ACC000000
(16.500000) can0 180#E80D570BB4450000
(16.500000) can0 181#BE0F5A0F47000000
(16.550000) can0 100#5519770D63680100
(16.550000) can0 101#1C1B4C1ACC000000
(16.550000) can0 180#E80D720BB4450000
(16.550000) can0 181#BE0F5A0F47000000
(16.600000) can0 100#5019610D5F680100
(16.600000) can0 101#191B491ACC000000
(16.600000) can0 180#E80D600BB4450000
(16.600000) can0 181#BE0F5A0F47000000
(16.650000) can0 100#6B19520D60690100
(16.650000) can0 101#151B451ACC000000
(16.650000) can0 180#E80D520BB4450000
(16.650000) can0 181#BE0F5A0F47000000
(16.700000) can0 100#5619730D62690100
(16.700000) can0 101#111B411ACC000000
(16.700000) can0 180#E80D6E0BB4450000
(16.700000) can0 181#BE0F5A0F47000000
(16.750000) can0 100#4A19510D63690100
(16.750000) can0 101#0D1B3D1ACC000000
(16.750000) can0 180#E80D520BB4450000
(16.750000) can0 181#BE0F5A0F47000000
(16.800000) can0 100#62195A0D61690100
(16.800000) can0 101#091B391ACC000000
(16.800000) can0 180#E80D590BB4450000
(16.800000) can0 181#BE0F5A0F47000000
(16.850000) can0 100#53195D0D64690100
(16.850000) can0 101#041B351ACB000000
(16.850000) can0 180#E80D5C0BB4450000
(16.850000) can0 181#BE0F5A0F47000000
(16.900000) can0 100#59194D0D64690100
(16.900000) can0 101#FF1A301ACB000000
(16.900000) can0 180#E80D4E0BB4450000
(16.900000) can0 181#BE0F5A0F47000000
(16.950000) can0 100#4819430D616A0100
(16.950000) can0 101#FB1A2B1ACB000000
(16.950000) can0 180#E80D460BB4450000
(16.950000) can0 181#BE0F5A0F47000000
(17.000000) can0 100#3019470D606A0100
(17.000000) can0 101#F51A261ACB000000
(17.000000) can0 180#E80D490BB4450000
(17.000000) can0 181#BE0F5A0F47000000
(17.050000) can0 100#3419410D606A0100
(17.050000) can0 101#F01A211ACB000000
(17.050000) can0 180#E80D440BB4450000
(17.050000) can0 181#BE0F5A0F47000000
(17.100000) can0 100#1C195B0D646A0100
(17.100000) can0 101#EB1A1C1ACB000000
(17.100000) can0 180#E70D5A0BB4450000
(17.100000) can0 181#BE0F5A0F47000000
(17.150000) can0 100#2119400D646A0100
(17.150000) can0 101#E51A171ACB000000
(17.150000) can0 180#E70D430BB4450000
(17.150000) can0 181#BE0F5A0F47000000
(17.200000) can0 100#3D19340D656A0100
(17.200000) can0 101#E01A111ACA000000
(17.200000) can0 180#E70D390BB4450000
(17.200000) can0 181#BE0F5A0F47000000
(17.250000) can0 100#41193A0D646B0100
(17.250000) can0 101#DA1A0C1ACA000000
(17.250000) can0 180#E70D3E0BB4450000
(17.250000) can0 181#BE0F5A0F47000000
(17.300000) can0 100#1819300D626B0100
(17.300000) can0 101#D41A061ACA000000
(17.300000) can0 180#E70D350BB4450000
(17.300000) can0 181#BE0F5A0F47000000
(17.350000) can0 100#2919480D646B0100
(17.350000) can0 101#CE1A001ACA000000
(17.350000) can0 180#E70D4A0BB4450000
(17.350000) can0 181#BE0F5A0F47000000
(17.400000) can0 100#34193C0D666B0100
(17.400000) can0 101#C71AFA19CA000000
(17.400000) can0 180#E70D400BB4450000
(17.400000) can0 181#BE0F5A0F47000000
(17.450000) can0 100#1F194A0D666B0100
(17.450000) can0 101#C11AF419C9000000
(17.450000) can0 180#E70D4C0BB4450000
(17.450000) can0 181#BE0F5A0F47000000
(17.500000) can0 100#2C19440D646B0100
(17.500000) can0 101#BA1AED19C9000000
(17.500000) can0 180#E70D460BB3450000
(17.500000) can0 181#BD0F5A0F47000000
(17.550000) can0 100#1419440D666C0100
(17.550000) can0 101#B41AE719C9000000
(17.550000) can0 180#E70D470BB3450000
(17.550000) can0 181#BD0F590F47000000
(17.600000) can0 100#11192A0D636C0100
(17.600000) can0 101#AD1AE019C9000000
(17.600000) can0 180#E70D310BB3450000
(17.600000) can0 181#BD0F590F47000000
(17.650000) can0 100#0D193B0D676C0100
(17.650000) can0 101#A61AD919C9000000
(17.650000) can0 180#E70D3F0BB3450000
(17.650000) can0 181#BD0F590F47000000
(17.700000) can0 100#F0182C0D676C0100
(17.700000) can0 101#9F1AD219C8000000
(17.700000) can0 180#E70D320BB3450000
(17.700000) can0 181#BD0F590F47000000
(17.750000) can0 100#F718290D656C0100
(17.750000) can0 101#981ACB19C8000000
(17.750000) can0 180#E70D300BB3450000
(17.750000) can0 181#BD0F590F47000000
(17.800000) can0 100#F518340D656C0100
(17.800000) can0 101#901AC419C8000000
(17.800000) can0 180#E70D390BB3450000
(17.800000) can0 181#BD0F590F47000000
(17.850000) can0 100#F818210D676D0100
(17.850000) can0 101#891ABD19C8000000
(17.850000) can0 180#E70D290BB3450000
(17.850000) can0 181#BD0F590F47000000
(17.900000) can0 100#0219270D646D0100
(17.900000) can0 101#811AB619C8000000
(17.900000) can0 180#E70D2E0BB3450000
(17.900000) can0 181#BD0F590F47000000
(17.950000) can0 100#01191E0D676D0100
(17.950000) can0 101#7A1AAE19C7000000
(17.950000) can0 180#E60D260BB3450000
(17.950000) can0 181#BD0F590F47000000
(18.000000) can0 100#E918060D666D0100
(18.000000) can0 101#721AA719C7000000
(18.000000) can0 180#E60D120BB3450000
(18.000000) can0 181#BD0F590F47000000
(18.050000) can0 100#E4180A0D686D0100
(18.050000) can0 101#6A1A9F19C7000000
(18.050000) can0 180#E60D150BB3450000
(18.050000) can0 181#BD0F590F47000000
(18.100000) can0 100#DE18100D676D0100
(18.100000) can0 101#621A9819C7000000
(18.100000) can0 180#E60D1A0BB3450000
(18.100000) can0 181#BD0F590F47000000
(18.150000) can0 100#C818160D686E0100
(18.150000) can0 101#5B1A9019C6000000
(18.150000) can0 180#E60D200BB3450000
(18.150000) can0 181#BD0F590F47000000
(18.200000) can0 100#EC18F10C686E0100
(18.200000) can0 101#521A8819C6000000
(18.200000) can0 180#E60D000BB3450000
(18.200000) can0 181#BD0F590F47000000
(18.250000) can0 100#E1180A0D666E0100
(18.250000) can0 101#4A1A8019C6000000
(18.250000) can0 180#E60D150BB3450000
(18.250000) can0 181#BD0F590F47000000
(18.300000) can0 100#D218FC0C676E0100
(18.300000) can0 101#421A7919C6000000
(18.300000) can0 180#E60D090BB3450000
(18.300000) can0 181#BD0F590F47000000
(18.350000) can0 100#B118F00C666E0100
(18.350000) can0 101#3A1A7119C5000000
(18.350000) can0 180#E60DFF0AB3450000
(18.350000) can0 181#BD0F590F47000000
(18.400000) can0 100#D218000D666E0100
(18.400000) can0 101#321A6919C5000000
(18.400000) can0 180#E60D0D0BB3450000
(18.400000) can0 181#BD0F590F47000000
(18.450000) can0 100#D918F10C686F0100
(18.450000) can0 101#291A6119C5000000
(18.450000) can0 180#E60D000BB3450000
(18.450000) can0 181#BD0F590F47000000
(18.500000) can0 100#BC18DE0C666F0100
(18.500000) can0 101#211A5819C5000000
(18.500000) can0 180#E60DF00AB3450000
(18.500000) can0 181#BD0F590F47000000
(18.550000) can0 100#A218D50C666F0100
(18.550000) can0 101#191A5019C4000000
(18.550000) can0 180#E60DE90AB3450000
(18.550000) can0 181#BD0F590F47000000
(18.600000) can0 100#A518EB0C676F0100
(18.600000) can0 101#101A4819C4000000
(18.600000) can0 180#E60DFB0AB3450000
(18.600000) can0 181#BD0F590F47000000
(18.650000) can0 100#BA18EB0C656F0100
(18.650000) can0 101#081A4019C4000000
(18.650000) can0 180#E60DFB0AB3450000
(18.650000) can0 181#BD0F590F47000000
(18.700000) can0 100#B518DD0C676F0100
(18.700000) can0 101#FF193819C4000000
(18.700000) can0 180#E60DEF0AB3450000
(18.700000) can0 181#BD0F590F47000000
(18.750000) can0 100#8018E60C66700100
(18.750000) can0 101#F7193019C3000000
(18.750000) can0 180#E60DF60AB3450000
(18.750000) can0 181#BD0F590F47000000
(18.800000) can0 100#8918C30C67700100
(18.800000) can0 101#EE192719C3000000
(18.800000) can0 180#E50DD90AB3450000
(18.800000) can0 181#BD0F590F47000000
(18.850000) can0 100#8618C60C6B700100
(18.850000) can0 101#E6191F19C3000000
(18.850000) can0 180#E50DDB0AB3450000
(18.850000) can0 181#BD0F590F47000000
(18.900000) can0 100#A218CA0C69700100
(18.900000) can0 101#DD191719C3000000
(18.900000) can0 180#E50DDF0AB3450000
(18.900000) can0 181#BD0F590F47000000
(18.950000) can0 100#7118C90C6B700100
(18.950000) can0 101#D5190F19C2000000
(18.950000) can0 180#E50DDE0AB3450000
(18.950000) can0 181#BD0F590F47000000
(19.000000) can0 100#9018B40C69700100
(19.000000) can0 101#CC190619C2000000
(19.000000) can0 180#E50DCC0AB3450000
(19.000000) can0 181#BD0F590F47000000
(19.050000) can0 100#7218B60C68700100
(19.050000) can0 101#C419FE18C2000000
(19.050000) can0 180#E50DCE0AB3450000
(19.050000) can0 181#BD0F590F47000000
(19.100000) can0 100#8718BA0C6B710100
(19.100000) can0 101#BC19F618C2000000
(19.100000) can0 180#E50DD10AB3450000
(19.100000) can0 181#BD0F590F47000000
(19.150000) can0 100#5618A50C69710100
(19.150000) can0 101#B319EE18C2000000
(19.150000) can0 180#E50DC00AB3450000
(19.150000) can0 181#BD0F590F47000000
(19.200000) can0 100#7618A60C69710100
(19.200000) can0 101#AB19E618C1000000
(19.200000) can0 180#E50DC00AB2450000
(19.200000) can0 181#BC0F580F47000000
(19.250000) can0 100#6518A80C6B710100
(19.250000) can0 101#A219DE18C1000000
(19.250000) can0 180#E50DC20AB2450000
(19.250000) can0 181#BC0F580F47000000
(19.300000) can0 100#7018970C6A710100
(19.300000) can0 101#9A19D518C1000000
(19.300000) can0 180#E50DB40AB2450000
(19.300000) can0 181#BC0F580F47000000
(19.350000) can0 100#4E18AA0C6A710100
(19.350000) can0 101#9219CD18C1000000
(19.350000) can0 180#E50DC30AB2450000
(19.350000) can0 181#BC0F580F47000000
(19.400000) can0 100#60188C0C6B720100
(19.400000) can0 101#8A19C518C0000000
(19.400000) can0 180#E50DAA0AB2450000
(19.400000) can0 181#BC0F580F47000000
(19.450000) can0 100#5618870C6B720100
(19.450000) can0 101#8119BE18C0000000
(19.450000) can0 180#E50DA60AB2450000
(19.450000) can0 181#BC0F580F47000000
(19.500000) can0 100#3A18880C6C720100
(19.500000) can0 101#7919B618C0000000
(19.500000) can0 180#E50DA70AB2450000
(19.500000) can0 181#BC0F580F47000000
(19.550000) can0 100#3C187F0C69720100
(19.550000) can0 101#7119AE18C0000000
(19.550000) can0 180#E50D9F0AB2450000
(19.550000) can0 181#BC0F580F47000000
(19.600000) can0 100#2D188A0C6A720100
(19.600000) can0 101#6919A618BF000000
(19.600000) can0 180#E40DA80AB2450000
(19.600000) can0 181#BC0F580F47000000
(19.650000) can0 100#3C18980C69720100
(19.650000) can0 101#62199F18BF000000
(19.650000) can0 180#E40DB40AB2450000
(19.650000) can0 181#BC0F580F47000000
(19.700000) can0 100#1D18950C6D730100
(19.700000) can0 101#5A199718BF000000
(19.700000) can0 180#E40DB20AB2450000
(19.700000) can0 181#BC0F580F47000000
(19.750000) can0 100#1518940C69730100
(19.750000) can0 101#52199018BF000000
(19.750000) can0 180#E40DB10AB2450000
(19.750000) can0 181#BC0F580F47000000
(19.800000) can0 100#3118820C6A730100
(19.800000) can0 101#4A198818BE000000
(19.800000) can0 180#E40DA20AB2450000
(19.800000) can0 181#BC0F580F47000000
(19.850000) can0 100#23186C0C6E730100
(19.850000) can0 101#43198118BE000000
(19.850000) can0 180#E40D8F0AB2450000
(19.850000) can0 181#BC0F580F47000000
(19.900000) can0 100#1918840C6B730100
(19.900000) can0 101#3C197A18BE000000
(19.900000) can0 180#E40DA30AB2450000
(19.900000) can0 181#BC0F580F47000000
(19.950000) can0 100#3218850C6E730100
(19.950000) can0 101#34197318BE000000
(19.950000) can0 180#E40DA40AB2450000
(19.950000) can0 181#BC0F580F47000000
(20.000000) can0 100#2E18660C6C730100
(20.000000) can0 101#2D196C18BE000000
(20.000000) can0 180#E40D8A0AB2450000
(20.000000) can0 181#BC0F580F47000000
(20.050000) can0 100#1718690C6D740100
(20.050000) can0 101#26196518BD000000
(20.050000) can0 180#E40D8C0AB2450000
(20.050000) can0 181#BC0F580F47000000
(20.100000) can0 100#0718630C6E740100
(20.100000) can0 101#1F195E18BD000000
(20.100000) can0 180#E40D870AB2450000
(20.100000) can0 181#BC0F580F47000000
(20.150000) can0 100#0D18570C6C740100
(20.150000) can0 101#18195718BD000000
(20.150000) can0 180#E40D7D0AB2450000
(20.150000) can0 181#BC0F580F47000000
(20.200000) can0 100#20185D0C6B740100
(20.200000) can0 101#11195118BD000000
(20.200000) can0 180#E40D820AB2450000
(20.200000) can0 181#BC0F580F47000000
(20.250000) can0 100#17186C0C6E740100
(20.250000) can0 101#0B194B18BD000000
(20.250000) can0 180#E40D8F0AB2450000
(20.250000) can0 181#BC0F580F47000000
(20.300000) can0 100#EA17500C6C740100
(20.300000) can0 101#04194418BC000000
(20.300000) can0 180#E40D780AB2450000
(20.300000) can0 181#BC0F580F47000000
(20.350000) can0 100#0B18600C6F750100
(20.350000) can0 101#FE183E18BC000000
(20.350000) can0 180#E40D850AB2450000
(20.350000) can0 181#BC0F580F47000000
(20.400000) can0 100#0818560C6C750100
(20.400000) can0 101#F8183818BC000000
(20.400000) can0 180#E40D7C0AB2450000
(20.400000) can0 181#BC0F580F47000000
(20.450000) can0 100#0318510C6B750100
(20.450000) can0 101#F2183218BC000000
(20.450000) can0 180#E30D780AB2450000
(20.450000) can0 181#BC0F580F47000000
(20.500000) can0 100#F417560C6D750100
(20.500000) can0 101#EC182D18BC000000
(20.500000) can0 180#E30D7C0AB2450000
(20.500000) can0 181#BC0F580F47000000
(20.550000) can0 100#0218530C6F750100
(20.550000) can0 101#E7182718BB000000
(20.550000) can0 180#E30D7A0AB2450000
(20.550000) can0 181#BC0F580F47000000
(20.600000) can0 100#CF17490C6F750100
(20.600000) can0 101#E1182218BB000000
(20.600000) can0 180#E30D710AB2450000
(20.600000) can0 181#BC0F580F47000000
(20.650000) can0 100#D817370C6E760100
(20.650000) can0 101#DC181D18BB000000
(20.650000) can0 180#E30D620AB2450000
(20.650000) can0 181#BC0F580F47000000
(20.700000) can0 100#D617440C70760100
(20.700000) can0 101#D6181818BB000000
(20.700000) can0 180#E30D6D0AB2450000
(20.700000) can0 181#BC0F580F47000000
(20.750000) can0 100#F217320C6D760100
(20.750000) can0 101#D1181318BB000000
(20.750000) can0 180#E30D5E0AB2450000
(20.750000) can0 181#BC0F580F47000000
(20.800000) can0 100#F117460C6E760100
(20.800000) can0 101#CD180E18BB000000
(20.800000) can0 180#E30D6E0AB2450000
(20.800000) can0 181#BC0F580F47000000
(20.850000) can0 100#D617410C6D760100
(20.850000) can0 101#C8180A18BB000000
(20.850000) can0 180#E30D6A0AB1450000
(20.850000) can0 181#BB0F570F47000000
(20.900000) can0 100#ED173A0C6D760100
(20.900000) can0 101#C3180518BA000000
(20.900000) can0 180#E30D650AB1450000
(20.900000) can0 181#BB0F570F47000000
(20.950000) can0 100#DC17330C6F760100
(20.950000) can0 101#BF180118BA000000
(20.950000) can0 180#E30D5F0AB1450000
(20.950000) can0 181#BB0F570F47000000
(21.000000) can0 100#BB17270C71770100
(21.000000) can0 101#BB18FD17BA000000
(21.000000) can0 180#E30D540AB1450000
(21.000000) can0 181#BB0F570F47000000
(21.050000) can0 100#E517300C6E770100
(21.050000) can0 101#B718F917BA000000
(21.050000) can0 180#E30D5C0AB1450000
(21.050000) can0 181#BB0F570F47000000
(21.100000) can0 100#CB17270C71770100
(21.100000) can0 101#B318F617BA000000
(21.100000) can0 180#E30D550AB1450000
(21.100000) can0 181#BB0F570F47000000
(21.150000) can0 100#C517300C6F770100
(21.150000) can0 101#B018F217BA000000
(21.150000) can0 180#E30D5C0AB1450000
(21.150000) can0 181#BB0F570F47000000
(21.200000) can0 100#B2172C0C71770100
(21.200000) can0 101#AC18EF17BA000000
(21.200000) can0 180#E30D590AB1450000
(21.200000) can0 181#BB0F570F47000000
(21.250000) can0 100#BF17290C6F770100
(21.250000) can0 101#A918EC17BA000000
(21.250000) can0 180#E20D560AB1450000
(21.250000) can0 181#BB0F570F47000000
(21.300000) can0 100#D417340C72780100
(21.300000) can0 101#A618E917BA000000
(21.300000) can0 180#E20D5F0AB1450000
(21.300000) can0 181#BB0F570F47000000
(21.350000) can0 100#A817340C71780100
(21.350000) can0 101#A318E617BA000000
(21.350000) can0 180#E20D5F0AB1450000
(21.350000) can0 181#BB0F570F47000000
(21.400000) can0 100#CC17320C6E780100
(21.400000) can0 101#A118E417B9000000
(21.400000) can0 180#E20D5D0AB1450000
(21.400000) can0 181#BB0F570F47000000
(21.450000) can0 100#D417230C70780100
(21.450000) can0 101#9E18E117B9000000
(21.450000) can0 180#E20D510AB1450000
(21.450000) can0 181#BB0F570F47000000
(21.500000) can0 100#A717230C6E780100
(21.500000) can0 101#9C18DF17B9000000
(21.500000) can0 180#E20D510AB1450000
(21.500000) can0 181#BB0F570F47000000
(21.550000) can0 100#C717240C70780100
(21.550000) can0 101#9A18DD17B9000000
(21.550000) can0 180#E20D520AB1450000
(21.550000) can0 181#BB0F570F47000000
(21.600000) can0 100#D417200C72780100
(21.600000) can0 101#9818DC17B9000000
(21.600000) can0 180#E20D4E0AB1450000
(21.600000) can0 181#BB0F570F47000000
(21.650000) can0 100#CA17330C70790100
(21.650000) can0 101#9718DA17B9000000
(21.650000) can0 180#E20D5F0AB1450000
(21.650000) can0 181#BB0F570F47000000
(21.700000) can0 100#CC172F0C70790100
(21.700000) can0 101#9618D917B9000000
(21.700000) can0 180#E20D5B0AB1450000
(21.700000) can0 181#BB0F570F47000000
(21.750000) can0 100#B9172B0C72790100
(21.750000) can0 101#9418D817B9000000
(21.750000) can0 180#E20D580AB1450000
(21.750000) can0 181#BB0F570F47000000
(21.800000) can0 100#AE171F0C73790100
(21.800000) can0 101#9418D717B9000000
(21.800000) can0 180#E20D4E0AB1450000
(21.800000) can0 181#BB0F570F47000000
(21.850000) can0 100#A517360C72790100
(21.850000) can0 101#9318D617B9000000
(21.850000) can0 180#E20D610AB1450000
(21.850000) can0 181#BB0F570F47000000
(21.900000) can0 100#A517160C74790100
(21.900000) can0 101#9218D617B9000000
(21.900000) can0 180#E20D460AB1450000
(21.900000) can0 181#BB0F570F47000000
(21.950000) can0 100#CA17140C717A0100
(21.950000) can0 101#9218D517B9000000
(21.950000) can0 180#E20D440AB1450000
(21.950000) can0 181#BB0F570F47000000
(22.000000) can0 100#CA17330C747A0100
(22.000000) can0 101#9218D517B9000000
(22.000000) can0 180#E20D5F0AB1450000
(22.000000) can0 181#BB0F570F47000000
(22.050000) can0 100#AC172F0C747A0100
(22.050000) can0 101#9218D517B9000000
(22.050000) can0 180#E20D5B0AB1450000
(22.050000) can0 181#BB0F570F47000000
(22.100000) can0 100#AE17170C717A0100
(22.100000) can0 101#9318D617B9000000
(22.100000) can0 180#E10D470AB1450000
(22.100000) can0 181#BB0F570F47000000
(22.150000) can0 100#C617310C747A0100
(22.150000) can0 101#9318D617B9000000
(22.150000) can0 180#E10D5D0AB1450000
(22.150000) can0 181#BB0F570F47000000
(22.200000) can0 100#B317210C727A0100
(22.200000) can0 101#9418D717B9000000
(22.200000) can0 180#E10D500AB1450000
(22.200000) can0 181#BB0F570F47000000
(22.250000) can0 100#A817230C747A0100
(22.250000) can0 101#9518D817B9000000
(22.250000) can0 180#E10D510AB1450000
(22.250000) can0 181#BB0F570F47000000
(22.300000) can0 100#C717240C737B0100
(22.300000) can0 101#9618D917B9000000
(22.300000) can0 180#E10D520AB1450000
(22.300000) can0 181#BB0F570F47000000
(22.350000) can0 100#AE17330C737B0100
(22.350000) can0 101#9718DB17B9000000
(22.350000) can0 180#E10D5F0AB1450000
(22.350000) can0 181#BB0F570F47000000
(22.400000) can0 100#CE17220C717B0100
(22.400000) can0 101#9918DC17B9000000
(22.400000) can0 180#E10D500AB1450000
(22.400000) can0 181#BB0F570F47000000
(22.450000) can0 100#D817270C757B0100
(22.450000) can0 101#9B18DE17B9000000
(22.450000) can0 180#E10D540AB1450000
(22.450000) can0 181#BB0F570F47000000
(22.500000) can0 100#B5172B0C717B0100
(22.500000) can0 101#9D18E017B9000000
(22.500000) can0 180#E10D570AB0450000
(22.500000) can0 181#BA0F560F47000000
(22.550000) can0 100#D117370C767B0100
(22.550000) can0 101#9F18E217B9000000
(22.550000) can0 180#E10D620AB0450000
(22.550000) can0 181#BA0F560F47000000
(22.600000) can0 100#B117310C727B0100
(22.600000) can0 101#A218E417B9000000
(22.600000) can0 180#E10D5D0AB0450000
(22.600000) can0 181#BA0F560F47000000
(22.650000) can0 100#C5171D0C727C0100
(22.650000) can0 101#A418E717BA000000
(22.650000) can0 180#E10D4C0AB0450000
(22.650000) can0 181#BA0F560F47000000
(22.700000) can0 100#D817260C737C0100
(22.700000) can0 101#A718EA17BA000000
(22.700000) can0 180#E10D530AB0450000
(22.700000) can0 181#BA0F560F47000000
(22.750000) can0 100#B817400C767C0100
(22.750000) can0 101#AA18ED17BA000000
(22.750000) can0 180#E10D6A0AB0450000
(22.750000) can0 181#BA0F560F47000000
(22.800000) can0 100#C317430C767C0100
(22.800000) can0 101#AD18F017BA000000
(22.800000) can0 180#E10D6C0AB0450000
(22.800000) can0 181#BA0F560F47000000
(22.850000) can0 100#C7172D0C777C0100
(22.850000) can0 101#B118F317BA000000
(22.850000) can0 180#E10D5A0AB0450000
(22.850000) can0 181#BA0F560F47000000
(22.900000) can0 100#B117350C767C0100
(22.900000) can0 101#B518F717BA000000
(22.900000) can0 180#E10D600AB0450000
(22.900000) can0 181#BA0F560F47000000
(22.950000) can0 100#EC17320C777D0100
(22.950000) can0 101#B818FA17BA000000
(22.950000) can0 180#E00D5E0AB0450000
(22.950000) can0 181#BA0F560F47000000
(23.000000) can0 100#EB17460C747D0100
(23.000000) can0 101#BC18FE17BA000000
(23.000000) can0 180#E00D6F0AB0450000
(23.000000) can0 181#BA0F560F47000000
(23.050000) can0 100#E5172D0C767D0100
(23.050000) can0 101#C1180218BA000000
(23.050000) can0 180#E00D590AB0450000
(23.050000) can0 181#BA0F560F47000000
(23.100000) can0 100#EA17450C777D0100
(23.100000) can0 101#C5180718BA000000
(23.100000) can0 180#E00D6E0AB0450000
(23.100000) can0 181#BA0F560F47000000
(23.150000) can0 100#E6173D0C787D0100
(23.150000) can0 101#C9180B18BB000000
(23.150000) can0 180#E00D670AB0450000
(23.150000) can0 181#BA0F560F47000000
(23.200000) can0 100#C317380C747D0100
(23.200000) can0 101#CE181018BB000000
(23.200000) can0 180#E00D630AB0450000
(23.200000) can0 181#BA0F560F47000000
(23.250000) can0 100#E3174D0C767D0100
(23.250000) can0 101#D3181518BB000000
(23.250000) can0 180#E00D750AB0450000
(23.250000) can0 181#BA0F560F47000000
(23.300000) can0 100#CC173E0C777E0100
(23.300000) can0 101#D8181918BB000000
(23.300000) can0 180#E00D680AB0450000
(23.300000) can0 181#BA0F560F47000000
(23.350000) can0 100#CB17460C757E0100
(23.350000) can0 101#DE181F18BB000000
(23.350000) can0 180#E00D6F0AB0450000
(23.350000) can0 181#BA0F560F47000000
(23.400000) can0 100#E7173C0C747E0100
(23.400000) can0 101#E3182418BB000000
(23.400000) can0 180#E00D670AB0450000
(23.400000) can0 181#BA0F560F47000000
(23.450000) can0 100#F3173B0C777E0100
(23.450000) can0 101#E9182918BC000000
(23.450000) can0 180#E00D660AB0450000
(23.450000) can0 181#BA0F560F47000000
(23.500000) can0 100#E217430C777E0100
(23.500000) can0 101#EE182F18BC000000
(23.500000) can0 180#E00D6C0AB0450000
(23.500000) can0 181#BA0F560F47000000
(23.550000) can0 100#FC174A0C777E0100
(23.550000) can0 101#F4183518BC000000
(23.550000) can0 180#E00D720AB0450000
(23.550000) can0 181#BA0F560F47000000
(23.600000) can0 100#0318470C757F0100
(23.600000) can0 101#FA183A18BC000000
(23.600000) can0 180#E00D6F0AB0450000
(23.600000) can0 181#BA0F560F47000000
(23.650000) can0 100#E3175C0C777F0100
(23.650000) can0 101#00194018BC000000
(23.650000) can0 180#E00D810AB0450000
(23.650000) can0 181#BA0F560F47000000
(23.700000) can0 100#1E18600C787F0100
(23.700000) can0 101#07194718BC000000
(23.700000) can0 180#E00D850AB0450000
(23.700000) can0 181#BA0F560F47000000
(23.750000) can0 100#0318660C757F0100
(23.750000) can0 101#0D194D18BD000000
(23.750000) can0 180#DF0D8A0AB0450000
(23.750000) can0 181#BA0F560F47000000
(23.800000) can0 100#FB17510C767F0100
(23.800000) can0 101#14195318BD000000
(23.800000) can0 180#DF0D780AB0450000
(23.800000) can0 181#BA0F560F47000000
(23.850000) can0 100#0518710C777F0100
(23.850000) can0 101#1B195A18BD000000
(23.850000) can0 180#DF0D930AB0450000
(23.850000) can0 181#BA0F560F47000000
(23.900000) can0 100#2318740C79800100
(23.900000) can0 101#21196018BD000000
(23.900000) can0 180#DF0D960AB0450000
(23.900000) can0 181#BA0F560F47000000
(23.950000) can0 100#FC17700C77800100
(23.950000) can0 101#28196718BD000000
(23.950000) can0 180#DF0D930AB0450000
(23.950000) can0 181#BA0F560F47000000
(24.000000) can0 100#08187D0C79800100
(24.000000) can0 101#30196E18BE000000
(24.000000) can0 180#DF0D9D0AB0450000
(24.000000) can0 181#BA0F560F47000000
(24.050000) can0 100#2C187B0C77800100
(24.050000) can0 101#37197518BE000000
(24.050000) can0 180#DF0D9B0AB0450000
(24.050000) can0 181#BA0F560F47000000
(24.100000) can0 100#0B18840C79800100
(24.100000) can0 101#3E197C18BE000000
(24.100000) can0 180#DF0DA30AB0450000
(24.100000) can0 181#BA0F560F47000000
(24.150000) can0 100#1D186A0C7A800100
(24.150000) can0 101#46198318BE000000
(24.150000) can0 180#DF0D8E0AB0450000
(24.150000) can0 181#BA0F560F47000000
(24.200000) can0 100#1318920C79800100
(24.200000) can0 101#4D198B18BF000000
(24.200000) can0 180#DF0DAF0AAF450000
(24.200000) can0 181#B90F550F47000000
(24.250000) can0 100#5118860C7A810100
(24.250000) can0 101#55199218BF000000
(24.250000) can0 180#DF0DA50AAF450000
(24.250000) can0 181#B90F550F47000000
(24.300000) can0 100#48187C0C7A810100
(24.300000) can0 101#5C199A18BF000000
(24.300000) can0 180#DF0D9C0AAF450000
(24.300000) can0 181#B90F550F47000000
(24.350000) can0 100#4E189B0C7A810100
(24.350000) can0 101#6419A118BF000000
(24.350000) can0 180#DF0DB70AAF450000
(24.350000) can0 181#B90F550F47000000
(24.400000) can0 100#2C188B0C78810100
(24.400000) can0 101#6C19A918BF000000
(24.400000) can0 180#DF0DA90AAF450000
(24.400000) can0 181#B90F550F47000000
(24.450000) can0 100#5618A40C7A810100
(24.450000) can0 101#7419B118C0000000
(24.450000) can0 180#DF0DBE0AAF450000
(24.450000) can0 181#B90F550F47000000
(24.500000) can0 100#6918980C7A810100
(24.500000) can0 101#7C19B818C0000000
(24.500000) can0 180#DF0DB40AAF450000
(24.500000) can0 181#B90F550F47000000
(24.550000) can0 100#6C189D0C79820100
(24.550000) can0 101#8419C018C0000000
(24.550000) can0 180#DF0DB80AAF450000
(24.550000) can0 181#B90F550F47000000
(24.600000) can0 100#65188F0C7A820100
(24.600000) can0 101#8D19C818C0000000
(24.600000) can0 180#DE0DAD0AAF450000
(24.600000) can0 181#B90F550F47000000
(24.650000) can0 100#7018A60C7B820100
(24.650000) can0 101#9519D018C1000000
(24.650000) can0 180#DE0DC00AAF450000
(24.650000) can0 181#B90F550F47000000
(24.700000) can0 100#4918AE0C7C820100
(24.700000) can0 101#9D19D818C1000000
(24.700000) can0 180#DE0DC70AAF450000
(24.700000) can0 181#B90F550F47000000
(24.750000) can0 100#6E18A90C7A820100
(24.750000) can0 101#A519E018C1000000
(24.750000) can0 180#DE0DC30AAF450000
(24.750000) can0 181#B90F550F47000000
(24.800000) can0 100#64189E0C79820100
(24.800000) can0 101#AE19E818C1000000
(24.800000) can0 180#DE0DB90AAF450000
(24.800000) can0 181#B90F550F47000000
(24.850000) can0 100#6A18C80C7C830100
(24.850000) can0 101#B619F118C2000000
(24.850000) can0 180#DE0DDD0AAF450000
(24.850000) can0 181#B90F550F47000000
(24.900000) can0 100#9518CA0C7D830100
(24.900000) can0 101#BF19F918C2000000
(24.900000) can0 180#DE0DDF0AAF450000
(24.900000) can0 181#B90F550F47000000
(24.950000) can0 100#8618B70C7A830100
(24.950000) can0 101#C7190119C2000000
(24.950000) can0 180#DE0DCF0AAF450000
(24.950000) can0 181#B90F550F47000000
(25.000000) can0 100#8E18D30C7D830100
(25.000000) can0 101#CF190919C2000000
(25.000000) can0 180#DE0DE70AAF450000
(25.000000) can0 181#B90F550F47000000
(25.050000) can0 100#8F18D00C7E830100
(25.050000) can0 101#D8191119C3000000
(25.050000) can0 180#DE0DE40AAF450000
(25.050000) can0 181#B90F550F47000000
(25.100000) can0 100#7418D40C7C830100
(25.100000) can0 101#E0191A19C3000000
(25.100000) can0 180#DE0DE80AAF450000
(25.100000) can0 181#B90F550F47000000
(25.150000) can0 100#8C18D00C7B830100
(25.150000) can0 101#E9192219C3000000
(25.150000) can0 180#DE0DE40AAF450000
(25.150000) can0 181#B90F550F47000000
(25.200000) can0 100#A418E40C7D840100
(25.200000) can0 101#F1192A19C3000000
(25.200000) can0 180#DE0DF50AAF450000
(25.200000) can0 181#B90F550F47000000
(25.250000) can0 100#AE18D90C7C840100
(25.250000) can0 101#FA193219C4000000
(25.250000) can0 180#DE0DEB0AAF450000
(25.250000) can0 181#B90F550F47000000
(25.300000) can0 100#9E18E00C7E840100
(25.300000) can0 101#021A3B19C4000000
(25.300000) can0 180#DE0DF20AAF450000
(25.300000) can0 181#B90F550F47000000
(25.350000) can0 100#9218E80C7D840100
(25.350000) can0 101#0B1A4319C4000000
(25.350000) can0 180#DE0DF80AAF450000
(25.350000) can0 181#B90F550F47000000
(25.400000) can0 100#A818E50C7E840100
(25.400000) can0 101#131A4B19C4000000
(25.400000) can0 180#DE0DF60AAF450000
(25.400000) can0 181#B90F550F47000000
(25.450000) can0 100#A618E40C7A840100
(25.450000) can0 101#1C1A5319C5000000
(25.450000) can0 180#DD0DF50AAF450000
(25.450000) can0 181#B90F550F47000000
(25.500000) can0 100#AD18FB0C7D850100
(25.500000) can0 101#241A5B19C5000000
(25.500000) can0 180#DD0D090BAF450000
(25.500000) can0 181#B90F550F47000000
(25.550000) can0 100#A818FD0C7E850100
(25.550000) can0 101#2C1A6319C5000000
(25.550000) can0 180#DD0D0A0BAF450000
(25.550000) can0 181#B90F550F47000000
(25.600000) can0 100#DC18F10C80850100
(25.600000) can0 101#351A6B19C5000000
(25.600000) can0 180#DD0D000BAF450000
(25.600000) can0 181#B90F550F47000000
(25.650000) can0 100#D518050D7F850100
(25.650000) can0 101#3D1A7319C6000000
(25.650000) can0 180#DD0D110BAF450000
(25.650000) can0 181#B90F550F47000000
(25.700000) can0 100#C618EA0C7E850100
(25.700000) can0 101#451A7B19C6000000
(25.700000) can0 180#DD0DFA0AAF450000
(25.700000) can0 181#B90F550F47000000
(25.750000) can0 100#EC180D0D7D850100
(25.750000) can0 101#4D1A8319C6000000
(25.750000) can0 180#DD0D180BAF450000
(25.750000) can0 181#B90F550F47000000
(25.800000) can0 100#F318090D7D860100
(25.800000) can0 101#551A8B19C6000000
(25.800000) can0 180#DD0D140BAF450000
(25.800000) can0 181#B90F550F47000000
(25.850000) can0 100#DF18F80C80860100
(25.850000) can0 101#5D1A9319C7000000
(25.850000) can0 180#DD0D060BAE450000
(25.850000) can0 181#B80F540F47000000
(25.900000) can0 100#CE18160D81860100
(25.900000) can0 101#651A9B19C7000000
(25.900000) can0 180#DD0D200BAE450000
(25.900000) can0 181#B80F540F47000000
(25.950000) can0 100#EC180A0D7D860100
(25.950000) can0 101#6D1AA219C7000000
(25.950000) can0 180#DD0D150BAE450000
(25.950000) can0 181#B80F540F47000000
(26.000000) can0 100#F118170D81860100
(26.000000) can0 101#751AAA19C7000000
(26.000000) can0 180#DD0D200BAE450000
(26.000000) can0 181#B80F540F47000000
(26.050000) can0 100#E7182A0D7E860100
(26.050000) can0 101#7D1AB119C7000000
(26.050000) can0 180#DD0D310BAE450000
(26.050000) can0 181#B80F540F47000000
(26.100000) can0 100#F918250D7D870100
(26.100000) can0 101#841AB819C8000000
(26.100000) can0 180#DD0D2C0BAE450000
(26.100000) can0 181#B80F540F47000000
(26.150000) can0 100#E318310D7F870100
(26.150000) can0 101#8C1AC019C8000000
(26.150000) can0 180#DD0D360BAE450000
(26.150000) can0 181#B80F540F47000000
(26.200000) can0 100#FE18290D80870100
(26.200000) can0 101#931AC719C8000000
(26.200000) can0 180#DD0D2F0BAE450000
(26.200000) can0 181#B80F540F47000000
(26.250000) can0 100#1D19300D7F870100
(26.250000) can0 101#9A1ACE19C8000000
(26.250000) can0 180#DC0D360BAE450000
(26.250000) can0 181#B80F540F47000000
(26.300000) can0 100#F8183B0D80870100
(26.300000) can0 101#A11AD519C9000000
(26.300000) can0 180#DC0D3F0BAE450000
(26.300000) can0 181#B80F540F47000000
(26.350000) can0 100#28191A0D82870100
(26.350000) can0 101#A81ADC19C9000000
(26.350000) can0 180#DC0D230BAE450000
(26.350000) can0 181#B80F540F47000000
(26.400000) can0 100#FF18220D81880100
(26.400000) can0 101#AF1AE219C9000000
(26.400000) can0 180#DC0D2A0BAE450000
(26.400000) can0 181#B80F540F47000000
(26.450000) can0 100#25192D0D7E880100
(26.450000) can0 101#B61AE919C9000000
(26.450000) can0 180#DC0D330BAE450000
(26.450000) can0 181#B80F540F47000000
(26.500000) can0 100#3419440D82880100
(26.500000) can0 101#BD1AEF19C9000000
(26.500000) can0 180#DC0D470BAE450000
(26.500000) can0 181#B80F540F47000000
(26.550000) can0 100#29193B0D82880100
(26.550000) can0 101#C31AF619CA000000
(26.550000) can0 180#DC0D3F0BAE450000
(26.550000) can0 181#B80F540F47000000
(26.600000) can0 100#19193E0D81880100
(26.600000) can0 101#CA1AFC19CA000000
(26.600000) can0 180#DC0D410BAE450000
(26.600000) can0 181#B80F540F47000000
(26.650000) can0 100#1519510D83880100
(26.650000) can0 101#D01A021ACA000000
(26.650000) can0 180#DC0D520BAE450000
(26.650000) can0 181#B80F540F47000000
(26.700000) can0 100#36194B0D81890100
(26.700000) can0 101#D61A081ACA000000
(26.700000) can0 180#DC0D4D0BAE450000
(26.700000) can0 181#B80F540F47000000
(26.750000) can0 100#4519480D80890100
(26.750000) can0 101#DC1A0E1ACA000000
(26.750000) can0 180#DC0D4A0BAE450000
(26.750000) can0 181#B80F540F47000000
(26.800000) can0 100#1819360D81890100
(26.800000) can0 101#E21A131ACA000000
(26.800000) can0 180#DC0D3B0BAE450000
(26.800000) can0 181#B80F540F47000000
(26.850000) can0 100#3D19510D80890100
(26.850000) can0 101#E71A191ACB000000
(26.850000) can0 180#DC0D520BAE450000
(26.850000) can0 181#B80F540F47000000
(26.900000) can0 100#3719530D82890100
(26.900000) can0 101#ED1A1E1ACB000000
(26.900000) can0 180#DC0D540BAE450000
(26.900000) can0 181#B80F540F47000000
(26.950000) can0 100#4719480D80890100
(26.950000) can0 101#F21A231ACB000000
(26.950000) can0 180#DC0D4A0BAE450000
(26.950000) can0 181#B80F540F47000000
(27.000000) can0 100#41195F0D818A0100
(27.000000) can0 101#F71A281ACB000000
(27.000000) can0 180#DC0D5E0BAE450000
(27.000000) can0 181#B80F540F47000000
(27.050000) can0 100#3919440D848A0100
(27.050000) can0 101#FC1A2D1ACB000000
(27.050000) can0 180#DC0D470BAE450000
(27.050000) can0 181#B80F540F47000000
(27.100000) can0 100#4519570D848A0100
(27.100000) can0 101#011B321ACB000000
(27.100000) can0 180#DB0D570BAE450000
(27.100000) can0 181#B80F540F47000000
(27.150000) can0 100#5219530D818A0100
(27.150000) can0 101#061B361ACB000000
(27.150000) can0 180#DB0D530BAE450000
(27.150000) can0 181#B80F540F47000000
(27.200000) can0 100#5D196B0D808A0100
(27.200000) can0 101#0A1B3A1ACC000000
(27.200000) can0 180#DB0D680BAE450000
(27.200000) can0 181#B80F540F47000000
(27.250000) can0 100#3B19590D838A0100
(27.250000) can0 101#0E1B3F1ACC000000
(27.250000) can0 180#DB0D590BAE450000
(27.250000) can0 181#B80F540F47000000
(27.300000) can0 100#49195F0D848B0100
(27.300000) can0 101#121B431ACC000000
(27.300000) can0 180#DB0D5E0BAE450000
(27.300000) can0 181#B80F540F47000000
(27.350000) can0 100#4719520D848B0100
(27.350000) can0 101#161B461ACC000000
(27.350000) can0 180#DB0D530BAE450000
(27.350000) can0 181#B80F540F47000000
(27.400000) can0 100#5219690D858B0100
(27.400000) can0 101#1A1B4A1ACC000000
(27.400000) can0 180#DB0D660BAE450000
(27.400000) can0 181#B80F540F47000000
(27.450000) can0 100#7119580D848B0100
(27.450000) can0 101#1E1B4D1ACC000000
(27.450000) can0 180#DB0D580BAE450000
(27.450000) can0 181#B80F540F47000000
(27.500000) can0 100#6219600D828B0100
(27.500000) can0 101#211B501ACC000000
(27.500000) can0 180#DB0D5E0BAD450000
(27.500000) can0 181#B70F540F47000000
(27.550000) can0 100#5F196A0D848B0100
(27.550000) can0 101#241B541ACC000000
(27.550000) can0 180#DB0D670BAD450000
(27.550000) can0 181#B70F530F47000000
(27.600000) can0 100#5619570D828C0100
(27.600000) can0 101#271B561ACC000000
(27.600000) can0 180#DB0D570BAD450000
(27.600000) can0 181#B70F530F47000000
(27.650000) can0 100#63197F0D868C0100
(27.650000) can0 101#2A1B591ACD000000
(27.650000) can0 180#DB0D780BAD450000
(27.650000) can0 181#B70F530F47000000
(27.700000) can0 100#5C195B0D848C0100
(27.700000) can0 101#2C1B5B1ACD000000
(27.700000) can0 180#DB0D5A0BAD450000
(27.700000) can0 181#B70F530F47000000
(27.750000) can0 100#7D19740D858C0100
(27.750000) can0 101#2E1B5E1ACD000000
(27.750000) can0 180#DB0D700BAD450000
(27.750000) can0 181#B70F530F47000000
(27.800000) can0 100#6A197D0D858C0100
(27.800000) can0 101#301B601ACD000000
(27.800000) can0 180#DB0D770BAD450000
(27.800000) can0 181#B70F530F47000000
(27.850000) can0 100#8019790D848C0100
(27.850000) can0 101#321B621ACD000000
(27.850000) can0 180#DB0D740BAD450000
(27.850000) can0 181#B70F530F47000000
(27.900000) can0 100#62196D0D858D0100
(27.900000) can0 101#341B631ACD000000
(27.900000) can0 180#DB0D6A0BAD450000
(27.900000) can0 181#B70F530F47000000
(27.950000) can0 100#5819740D878D0100
(27.950000) can0 101#361B651ACD000000
(27.950000) can0 180#DA0D6F0BAD450000
(27.950000) can0 181#B70F530F47000000
(28.000000) can0 100#6C197D0D878D0100
(28.000000) can0 101#371B661ACD000000
(28.000000) can0 180#DA0D770BAD450000
(28.000000) can0 181#B70F530F47000000
(28.050000) can0 100#89197A0D888D0100
(28.050000) can0 101#381B671ACD000000
(28.050000) can0 180#DA0D750BAD450000
(28.050000) can0 181#B70F530F47000000
(28.100000) can0 100#89196F0D848D0100
(28.100000) can0 101#391B681ACD000000
(28.100000) can0 180#DA0D6B0BAD450000
(28.100000) can0 181#B70F530F47000000
(28.150000) can0 100#6319850D858D0100
(28.150000) can0 101#391B681ACD000000
(28.150000) can0 180#DA0D7E0BAD450000
(28.150000) can0 181#B70F530F47000000
(28.200000) can0 100#5B19740D868E0100
(28.200000) can0 101#3A1B691ACD000000
(28.200000) can0 180#DA0D700BAD450000
(28.200000) can0 181#B70F530F47000000
(28.250000) can0 100#5219650D878E0100
(28.250000) can0 101#3A1B691ACD000000
(28.250000) can0 180#DA0D630BAD450000
(28.250000) can0 181#B70F530F47000000
(28.300000) can0 100#6C19720D868E0100
(28.300000) can0 101#3A1B691ACD000000
(28.300000) can0 180#DA0D6E0BAD450000
(28.300000) can0 181#B70F530F47000000
(28.350000) can0 100#6E196D0D868E0100
(28.350000) can0 101#3A1B691ACD000000
(28.350000) can0 180#DA0D690BAD450000
(28.350000) can0 181#B70F530F47000000
(28.400000) can0 100#5919870D868E0100
(28.400000) can0 101#391B681ACD000000
(28.400000) can0 180#DA0D800BAD450000
(28.400000) can0 181#B70F530F47000000
(28.450000) can0 100#61196D0D858E0100
(28.450000) can0 101#391B681ACD000000
(28.450000) can0 180#DA0D690BAD450000
(28.450000) can0 181#B70F530F47000000
(28.500000) can0 100#6E197B0D888F0100
(28.500000) can0 101#381B671ACD000000
(28.500000) can0 180#DA0D760BAD450000
(28.500000) can0 181#B70F530F47000000
(28.550000) can0 100#7E196D0D868F0100
(28.550000) can0 101#371B661ACD000000
(28.550000) can0 180#DA0D6A0BAD450000
(28.550000) can0 181#B70F530F47000000
(28.600000) can0 100#8719750D868F0100
(28.600000) can0 101#361B651ACD000000
(28.600000) can0 180#DA0D700BAD450000
(28.600000) can0 181#B70F530F47000000
(28.650000) can0 100#7719790D8A8F0100
(28.650000) can0 101#341B631ACD000000
(28.650000) can0 180#DA0D730BAD450000
(28.650000) can0 181#B70F530F47000000
(28.700000) can0 100#6719830D868F0100
(28.700000) can0 101#321B611ACD000000
(28.700000) can0 180#DA0D7C0BAD450000
(28.700000) can0 181#B70F530F47000000
(28.750000) can0 100#7819720D878F0100
(28.750000) can0 101#301B601ACD000000
(28.750000) can0 180#D90D6E0BAD450000
(28.750000) can0 181#B70F530F47000000
(28.800000) can0 100#6B19610D88900100
(28.800000) can0 101#2E1B5E1ACD000000
(28.800000) can0 180#D90D5F0BAD450000
(28.800000) can0 181#B70F530F47000000
(28.850000) can0 100#6C197B0D8A900100
(28.850000) can0 101#2C1B5B1ACD000000
(28.850000) can0 180#D90D750BAD450000
(28.850000) can0 181#B70F530F47000000
(28.900000) can0 100#6E19590D86900100
(28.900000) can0 101#291B591ACD000000
(28.900000) can0 180#D90D590BAD450000
(28.900000) can0 181#B70F530F47000000
(28.950000) can0 100#4A19570D8A900100
(28.950000) can0 101#271B561ACC000000
(28.950000) can0 180#D90D570BAD450000
(28.950000) can0 181#B70F530F47000000
(29.000000) can0 100#4A19710D89900100
(29.000000) can0 101#241B531ACC000000
(29.000000) can0 180#D90D6D0BAD450000
(29.000000) can0 181#B70F530F47000000
(29.050000) can0 100#6E19780D87900100
(29.050000) can0 101#211B501ACC000000
(29.050000) can0 180#D90D730BAD450000
(29.050000) can0 181#B70F530F47000000
(29.100000) can0 100#6919540D8B910100
(29.100000) can0 101#1D1B4D1ACC000000
(29.100000) can0 180#D90D550BAD450000
(29.100000) can0 181#B70F530F47000000
(29.150000) can0 100#47195D0D89910100
(29.150000) can0 101#1A1B4A1ACC000000
(29.150000) can0 180#D90D5C0BAD450000
(29.150000) can0 181#B70F530F47000000
(29.200000) can0 100#58195B0D8B910100
(29.200000) can0 101#161B461ACC000000
(29.200000) can0 180#D90D5A0BAC450000
(29.200000) can0 181#B60F520F47000000
(29.250000) can0 100#6D195A0D8A910100
(29.250000) can0 101#121B421ACC000000
(29.250000) can0 180#D90D590BAC450000
(29.250000) can0 181#B60F520F47000000
(29.300000) can0 100#6219670D89910100
(29.300000) can0 101#0E1B3E1ACC000000
(29.300000) can0 180#D90D650BAC450000
(29.300000) can0 181#B60F520F47000000
(29.350000) can0 100#5A19610D8C910100
(29.350000) can0 101#0A1B3A1ACC000000
(29.350000) can0 180#D90D5F0BAC450000
(29.350000) can0 181#B60F520F47000000
(29.400000) can0 100#3C195C0D8C920100
(29.400000) can0 101#061B361ACB000000
(29.400000) can0 180#D90D5B0BAC450000
(29.400000) can0 181#B60F520F47000000
(29.450000) can0 100#6519500D8B920100
(29.450000) can0 101#011B321ACB000000
(29.450000) can0 180#D90D510BAC450000
(29.450000) can0 181#B60F520F47000000
(29.500000) can0 100#34195E0D8B920100
(29.500000) can0 101#FC1A2D1ACB000000
(29.500000) can0 180#D90D5C0BAC450000
(29.500000) can0 181#B60F520F47000000
(29.550000) can0 100#3919640D89920100
(29.550000) can0 101#F71A281ACB000000
(29.550000) can0 180#D90D620BAC450000
(29.550000) can0 181#B60F520F47000000
(29.600000) can0 100#3119410D8A920100
(29.600000) can0 101#F21A231ACB000000
(29.600000) can0 180#D80D440BAC450000
(29.600000) can0 181#B60F520F47000000
(29.650000) can0 100#3419610D89930100
(29.650000) can0 101#ED1A1E1ACB000000
(29.650000) can0 180#D80D5F0BAC450000
(29.650000) can0 181#B60F520F47000000
(29.700000) can0 100#5319570D8C930100
(29.700000) can0 101#E71A191ACB000000
(29.700000) can0 180#D80D570BAC450000
(29.700000) can0 181#B60F520F47000000
(29.750000) can0 100#2819510D8C930100
(29.750000) can0 101#E21A131ACA000000
(29.750000) can0 180#D80D520BAC450000
(29.750000) can0 181#B60F520F47000000
(29.800000) can0 100#2D193C0D8C930100
(29.800000) can0 101#DC1A0E1ACA000000
(29.800000) can0 180#D80D400BAC450000
(29.800000) can0 181#B60F520F47000000
(29.850000) can0 100#1B19440D8A930100
(29.850000) can0 101#D61A081ACA000000
(29.850000) can0 180#D80D470BAC450000
(29.850000) can0 181#B60F520F47000000
(29.900000) can0 100#3519310D8B930100
(29.900000) can0 101#D01A021ACA000000
(29.900000) can0 180#D80D360BAC450000
(29.900000) can0 181#B60F520F47000000
(29.950000) can0 100#2A19320D8B940100
(29.950000) can0 101#C91AFC19CA000000
(29.950000) can0 180#D80D370BAC450000
(29.950000) can0 181#B60F520F47000000
(30.000000) can0 100#22193F0D8E940100
(30.000000) can0 101#C31AF619CA000000
(30.000000) can0 180#D80D420BAC460000
(30.000000) can0 181#B60F520F48000000
(30.050000) can0 100#17193F0D8E940100
(30.050000) can0 101#BD1AEF19C9000000
(30.050000) can0 180#D80D420BAC460000
(30.050000) can0 181#B60F520F48000000
(30.100000) can0 100#28191F0D8C940100
(30.100000) can0 101#B61AE919C9000000
(30.100000) can0 180#D80D270BAC460000
(30.100000) can0 181#B60F520F48000000
(30.150000) can0 100#2D192C0D8A940100
(30.150000) can0 101#AF1AE219C9000000
(30.150000) can0 180#D80D320BAC460000
(30.150000) can0 181#B60F520F48000000
(30.200000) can0 100#26192B0D8E940100
(30.200000) can0 101#A81ADB19C9000000
(30.200000) can0 180#D80D310BAC460000
(30.200000) can0 181#B60F520F48000000
(30.250000) can0 100#2619210D8C940100
(30.250000) can0 101#A11AD519C9000000
(30.250000) can0 180#D80D290BAC460000
(30.250000) can0 181#B60F520F48000000
(30.300000) can0 100#1E19150D8D950100
(30.300000) can0 101#9A1ACE19C8000000
(30.300000) can0 180#D80D1E0BAC460000
(30.300000) can0 181#B60F520F48000000
(30.350000) can0 100#03192A0D8B950100
(30.350000) can0 101#931AC719C8000000
(30.350000) can0 180#D80D310BAC460000
(30.350000) can0 181#B60F520F48000000
(30.400000) can0 100#1519110D8C950100
(30.400000) can0 101#8B1AC019C8000000
(30.400000) can0 180#D80D1B0BAC460000
(30.400000) can0 181#B60F520F48000000
(30.450000) can0 100#E4182B0D8B950100
(30.450000) can0 101#841AB819C8000000
(30.450000) can0 180#D70D310BAC460000
(30.450000) can0 181#B60F520F48000000
(30.500000) can0 100#ED18160D8C950100
(30.500000) can0 101#7C1AB119C7000000
(30.500000) can0 180#D70D200BAC460000
(30.500000) can0 181#B60F520F48000000
(30.550000) can0 100#0A19240D8C950100
(30.550000) can0 101#751AA919C7000000
(30.550000) can0 180#D70D2B0BAC460000
(30.550000) can0 181#B60F520F48000000
(30.600000) can0 100#CB18110D90960100
(30.600000) can0 101#6D1AA219C7000000
(30.600000) can0 180#D70D1C0BAC460000
(30.600000) can0 181#B60F520F48000000
(30.650000) can0 100#0119020D8C960100
(30.650000) can0 101#651A9A19C7000000
(30.650000) can0 180#D70D0F0BAC460000
(30.650000) can0 181#B60F520F48000000
(30.700000) can0 100#E118070D8C960100
(30.700000) can0 101#5D1A9319C7000000
(30.700000) can0 180#D70D120BAC460000
(30.700000) can0 181#B60F520F48000000
(30.750000) can0 100#EE18020D90960100
(30.750000) can0 101#551A8B19C6000000
(30.750000) can0 180#D70D0E0BAC460000
(30.750000) can0 181#B60F520F48000000
(30.800000) can0 100#BD18F10C8F960100
(30.800000) can0 101#4D1A8319C6000000
(30.800000) can0 180#D70D000BAC460000
(30.800000) can0 181#B60F520F48000000
(30.850000) can0 100#C018EE0C8E960100
(30.850000) can0 101#451A7B19C6000000
(30.850000) can0 180#D70DFE0AAB460000
(30.850000) can0 181#B50F510F48000000
(30.900000) can0 100#DB18FA0C8E970100
(30.900000) can0 101#3D1A7319C6000000
(30.900000) can0 180#D70D070BAB460000
(30.900000) can0 181#B50F510F48000000
(30.950000) can0 100#B118010D8D970100
(30.950000) can0 101#341A6B19C5000000
(30.950000) can0 180#D70D0E0BAB460000
(30.950000) can0 181#B50F510F48000000
(31.000000) can0 100#D318EF0C92970100
(31.000000) can0 101#2C1A6319C5000000
(31.000000) can0 180#D70DFF0AAB460000
(31.000000) can0 181#B50F510F48000000
(31.050000) can0 100#C418DE0C91970100
(31.050000) can0 101#241A5B19C5000000
(31.050000) can0 180#D70DF00AAB460000
(31.050000) can0 181#B50F510F48000000
(31.100000) can0 100#AA18DC0C91970100
(31.100000) can0 101#1B1A5319C5000000
(31.100000) can0 180#D70DEE0AAB460000
(31.100000) can0 181#B50F510F48000000
(31.150000) can0 100#9F18EC0C8E970100
(31.150000) can0 101#131A4B19C4000000
(31.150000) can0 180#D70DFC0AAB460000
(31.150000) can0 181#B50F510F48000000
(31.200000) can0 100#9D18E70C93980100
(31.200000) can0 101#0B1A4319C4000000
(31.200000) can0 180#D70DF80AAB460000
(31.200000) can0 181#B50F510F48000000
(31.250000) can0 100#AD18E20C92980100
(31.250000) can0 101#021A3A19C4000000
(31.250000) can0 180#D60DF30AAB460000
(31.250000) can0 181#B50F510F48000000
(31.300000) can0 100#8718CE0C91980100
(31.300000) can0 101#FA193219C4000000
(31.300000) can0 180#D60DE20AAB460000
(31.300000) can0 181#B50F510F48000000
(31.350000) can0 100#9918E10C90980100
(31.350000) can0 101#F1192A19C3000000
(31.350000) can0 180#D60DF30AAB460000
(31.350000) can0 181#B50F510F48000000
(31.400000) can0 100#8818BE0C8F980100
(31.400000) can0 101#E9192219C3000000
(31.400000) can0 180#D60DD50AAB460000
(31.400000) can0 181#B50F510F48000000
(31.450000) can0 100#8118CE0C92980100
(31.450000) can0 101#E0191919C3000000
(31.450000) can0 180#D60DE20AAB460000
(31.450000) can0 181#B50F510F48000000
(31.500000) can0 100#7218B70C90990100
(31.500000) can0 101#D8191119C3000000
(31.500000) can0 180#D60DCF0AAB460000
(31.500000) can0 181#B50F510F48000000
(31.550000) can0 100#8918BD0C91990100
(31.550000) can0 101#CF190919C2000000
(31.550000) can0 180#D60DD40AAB460000
(31.550000) can0 181#B50F510F48000000
(31.600000) can0 100#7C18BE0C91990100
(31.600000) can0 101#C7190119C2000000
(31.600000) can0 180#D60DD50AAB460000
(31.600000) can0 181#B50F510F48000000
(31.650000) can0 100#6718AE0C90990100
(31.650000) can0 101#BE19F918C2000000
(31.650000) can0 180#D60DC70AAB460000
(31.650000) can0 181#B50F510F48000000
(31.700000) can0 100#8918A30C92990100
(31.700000) can0 101#B619F018C2000000
(31.700000) can0 180#D60DBE0AAB460000
(31.700000) can0 181#B50F510F48000000
(31.750000) can0 100#79189F0C92990100
(31.750000) can0 101#AD19E818C1000000
(31.750000) can0 180#D60DBB0AAB460000
(31.750000) can0 181#B50F510F48000000
(31.800000) can0 100#4D18AE0C929A0100
(31.800000) can0 101#A519E018C1000000
(31.800000) can0 180#D60DC70AAB460000
(31.800000) can0 181#B50F510F48000000
(31.850000) can0 100#66189A0C939A0100
(31.850000) can0 101#9D19D818C1000000
(31.850000) can0 180#D60DB60AAB460000
(31.850000) can0 181#B50F510F48000000
(31.900000) can0 100#5E18940C949A0100
(31.900000) can0 101#9519D018C1000000
(31.900000) can0 180#D60DB10AAB460000
(31.900000) can0 181#B50F510F48000000
(31.950000) can0 100#5C188F0C929A0100
(31.950000) can0 101#8C19C818C0000000
(31.950000) can0 180#D60DAD0AAB460000
(31.950000) can0 181#B50F510F48000000
(32.000000) can0 100#65189A0C939A0100
(32.000000) can0 101#8419C018C0000000
(32.000000) can0 180#D60DB60AAB460000
(32.000000) can0 181#B50F510F48000000
(32.050000) can0 100#4A18860C939A0100
(32.050000) can0 101#7C19B818C0000000
(32.050000) can0 180#D60DA50AAB460000
(32.050000) can0 181#B50F510F48000000
(32.100000) can0 100#5A189D0C949A0100
(32.100000) can0 101#7419B018C0000000
(32.100000) can0 180#D50DB80AAB460000
(32.100000) can0 181#B50F510F48000000
(32.150000) can0 100#56189A0C939B0100
(32.150000) can0 101#6C19A918BF000000
(32.150000) can0 180#D50DB60AAB460000
(32.150000) can0 181#B50F510F48000000
(32.200000) can0 100#2218860C959B0100
(32.200000) can0 101#6419A118BF000000
(32.200000) can0 180#D50DA50AAB460000
(32.200000) can0 181#B50F510F48000000
(32.250000) can0 100#5618990C969B0100
(32.250000) can0 101#5C199A18BF000000
(32.250000) can0 180#D50DB60AAB460000
(32.250000) can0 181#B50F510F48000000
(32.300000) can0 100#4D18710C949B0100
(32.300000) can0 101#55199218BF000000
(32.300000) can0 180#D50D940AAB460000
(32.300000) can0 181#B50F510F48000000
(32.350000) can0 100#3F188B0C919B0100
(32.350000) can0 101#4D198B18BE000000
(32.350000) can0 180#D50DA90AAB460000
(32.350000) can0 181#B50F510F48000000
(32.400000) can0 100#3218790C919B0100
(32.400000) can0 101#45198318BE000000
(32.400000) can0 180#D50D9A0AAB460000
(32.400000) can0 181#B50F510F48000000
(32.450000) can0 100#1E18880C929C0100
(32.450000) can0 101#3E197C18BE000000
(32.450000) can0 180#D50DA70AAB460000
(32.450000) can0 181#B50F510F48000000
(32.500000) can0 100#19187D0C939C0100
(32.500000) can0 101#37197518BE000000
(32.500000) can0 180#D50D9D0AAA460000
(32.500000) can0 181#B40F500F48000000
(32.550000) can0 100#1E18780C959C0100
(32.550000) can0 101#2F196E18BE000000
(32.550000) can0 180#D50D990AAA460000
(32.550000) can0 181#B40F500F48000000
(32.600000) can0 100#0318700C949C0100
(32.600000) can0 101#28196718BD000000
(32.600000) can0 180#D50D920AAA460000
(32.600000) can0 181#B40F500F48000000
(32.650000) can0 100#2018600C979C0100
(32.650000) can0 101#21196018BD000000
(32.650000) can0 180#D50D850AAA460000
(32.650000) can0 181#B40F500F48000000
(32.700000) can0 100#F1175F0C949C0100
(32.700000) can0 101#1A195A18BD000000
(32.700000) can0 180#D50D840AAA460000
(32.700000) can0 181#B40F500F48000000
(32.750000) can0 100#0C18650C939D0100
(32.750000) can0 101#14195318BD000000
(32.750000) can0 180#D50D890AAA460000
(32.750000) can0 181#B40F500F48000000
(32.800000) can0 100#F6175B0C969D0100
(32.800000) can0 101#0D194D18BD000000
(32.800000) can0 180#D50D800AAA460000
(32.800000) can0 181#B40F500F48000000
(32.850000) can0 100#1B18670C979D0100
(32.850000) can0 101#07194618BC000000
(32.850000) can0 180#D50D8A0AAA460000
(32.850000) can0 181#B40F500F48000000
(32.900000) can0 100#0F18570C949D0100
(32.900000) can0 101#00194018BC000000
(32.900000) can0 180#D50D7D0AAA460000
(32.900000) can0 181#B40F500F48000000
(32.950000) can0 100#1018440C979D0100
(32.950000) can0 101#FA183A18BC000000
(32.950000) can0 180#D40D6D0AAA460000
(32.950000) can0 181#B40F500F48000000
(33.000000) can0 100#DD17420C959D0100
(33.000000) can0 101#F4183418BC000000
(33.000000) can0 180#D40D6B0AAA460000
(33.000000) can0 181#B40F500F48000000
(33.050000) can0 100#FD173F0C959D0100
(33.050000) can0 101#EE182F18BC000000
(33.050000) can0 180#D40D690AAA460000
(33.050000) can0 181#B40F500F48000000
(33.100000) can0 100#E817440C989E0100
(33.100000) can0 101#E8182918BC000000
(33.100000) can0 180#D40D6D0AAA460000
(33.100000) can0 181#B40F500F48000000
